name,type,start_time,duration,"data","ack","address","read"
"Async Serial [1]","data",0.09738325,9.5e-06,0xB1,,,
"Async Serial [1]","data",0.09739325,9.5e-06,0x04,,,
"Async Serial [1]","data",0.09740325,9.5e-06,0x00,,,
"Async Serial [1]","data",0.09741325,9.5e-06,0x00,,,
"Async Serial [1]","data",0.09742325,9.5e-06,0xFC,,,
"Async Serial [1]","data",0.09743325,9.5e-06,0xB3,,,
"Async Serial","data",0.09747425,9.5e-06,0xB2,,,
"Async Serial","data",0.0974843125,9.5e-06,0x00,,,
"Async Serial","data",0.0974944375,9.5e-06,0x01,,,
"Async Serial","data",0.0975045625,9.5e-06,0x03,,,
"Async Serial","data",0.0975146875,9.5e-06,0xFC,,,
"Async Serial","data",0.0975248125,9.5e-06,0xB3,,,
"I2C","start",0.136889437,6.25e-08,,,,
"I2C","address",0.136892,2.33125e-05,,true,0x25,false
"I2C","stop",0.13692225,6.25e-08,,,,
"I2C","start",0.136927313,6.25e-08,,,,
"I2C","address",0.136929875,2.325e-05,,true,0x25,false
"I2C","data",0.136958625,2.3125e-05,0x00,true,,
"I2C","start",0.136987375,6.25e-08,,,,
"I2C","address",0.13699,2.325e-05,,true,0x25,true
"I2C","data",0.137023438,2.31875e-05,0xA5,true,,
"I2C","data",0.137048063,2.325e-05,0x03,false,,
"I2C","stop",0.137074312,6.25e-08,,,,
"I2C","start",0.137080188,6.25e-08,,,,
"I2C","address",0.137082813,2.325e-05,,true,0x25,false
"I2C","data",0.1371115,2.31875e-05,0x40,true,,
"I2C","start",0.137140188,6.25e-08,,,,
"I2C","address",0.137142812,2.325e-05,,true,0x25,true
"I2C","data",0.13717625,2.325e-05,0x00,false,,
"I2C","stop",0.1372025,6.25e-08,,,,
"I2C","start",0.13720775,6.25e-08,,,,
"I2C","address",0.137210375,2.325e-05,,true,0x25,false
"I2C","data",0.137239125,2.325e-05,0x00,true,,
"I2C","start",0.13726775,6.25e-08,,,,
"I2C","address",0.137270375,2.325e-05,,true,0x25,true
"I2C","data",0.137303875,2.31875e-05,0xA5,true,,
"I2C","data",0.137328563,2.325e-05,0x03,true,,
"I2C","data",0.137353312,2.325e-05,0x00,true,,
"I2C","data",0.137378063,2.325e-05,0x00,true,,
"I2C","data",0.137402812,2.325e-05,0x28,true,,
"I2C","data",0.1374275,2.325e-05,0xEF,true,,
"I2C","data",0.13745225,2.325e-05,0x5B,true,,
"I2C","data",0.137477,2.325e-05,0x00,true,,
"I2C","data",0.13750175,2.325e-05,0x03,true,,
"I2C","data",0.1375265,2.325e-05,0x00,true,,
"I2C","data",0.137551188,2.33125e-05,0x00,true,,
"I2C","data",0.137575938,2.325e-05,0x00,true,,
"I2C","data",0.137600688,2.325e-05,0x40,true,,
"I2C","data",0.137625438,2.325e-05,0x0D,true,,
"I2C","data",0.137650187,2.325e-05,0x03,true,,
"I2C","data",0.137674938,2.325e-05,0x00,true,,
"I2C","data",0.137699625,2.325e-05,0x01,true,,
"I2C","data",0.137724375,2.325e-05,0x00,true,,
"I2C","data",0.137749125,2.325e-05,0x01,true,,
"I2C","data",0.137773875,2.325e-05,0x00,true,,
"I2C","data",0.137798562,2.33125e-05,0x80,true,,
"I2C","data",0.137823312,2.325e-05,0x8D,true,,
"I2C","data",0.137848063,2.325e-05,0x5B,true,,
"I2C","data",0.137872812,2.325e-05,0x00,true,,
"I2C","data",0.137897562,2.325e-05,0x20,true,,
"I2C","data",0.13792225,2.33125e-05,0xBF,true,,
"I2C","data",0.137947,2.325e-05,0x02,true,,
"I2C","data",0.13797175,2.325e-05,0x00,true,,
"I2C","data",0.1379965,2.325e-05,0x00,true,,
"I2C","data",0.13802125,2.325e-05,0x12,true,,
"I2C","data",0.138045937,2.33125e-05,0x7A,true,,
"I2C","data",0.138070688,2.325e-05,0x00,true,,
"I2C","data",0.138095438,2.325e-05,0x60,true,,
"I2C","data",0.138120187,2.325e-05,0xE3,true,,
"I2C","data",0.138144938,2.325e-05,0x16,true,,
"I2C","data",0.138169687,2.325e-05,0x00,true,,
"I2C","data",0.138194375,2.325e-05,0x30,true,,
"I2C","data",0.138219125,2.325e-05,0x11,true,,
"I2C","data",0.138243875,2.325e-05,0x00,true,,
"I2C","data",0.138268625,2.325e-05,0x00,true,,
"I2C","data",0.138293312,2.325e-05,0xD0,true,,
"I2C","data",0.138318063,2.325e-05,0xEE,true,,
"I2C","data",0.138342812,2.325e-05,0xFF,true,,
"I2C","data",0.138367563,2.325e-05,0xFF,true,,
"I2C","data",0.138392313,2.325e-05,0x20,true,,
"I2C","data",0.138417,2.325e-05,0x03,true,,
"I2C","data",0.13844175,2.325e-05,0xD0,true,,
"I2C","data",0.1384665,2.325e-05,0x07,true,,
"I2C","data",0.13849125,2.325e-05,0x64,true,,
"I2C","data",0.138515937,2.33125e-05,0x00,true,,
"I2C","data",0.138540688,2.325e-05,0xF4,true,,
"I2C","data",0.138565437,2.325e-05,0x01,true,,
"I2C","data",0.138590187,2.325e-05,0x00,true,,
"I2C","data",0.138614875,2.33125e-05,0x00,true,,
"I2C","data",0.138639625,2.325e-05,0x00,true,,
"I2C","data",0.138664375,2.325e-05,0x00,true,,
"I2C","data",0.138689125,2.325e-05,0x00,true,,
"I2C","data",0.138713875,2.325e-05,0x00,true,,
"I2C","data",0.138738562,2.325e-05,0x00,true,,
"I2C","data",0.138763313,2.325e-05,0x00,true,,
"I2C","data",0.138788063,2.325e-05,0x00,true,,
"I2C","data",0.138812812,2.325e-05,0x00,true,,
"I2C","data",0.1388375,2.33125e-05,0x00,true,,
"I2C","data",0.13886225,2.325e-05,0x00,true,,
"I2C","data",0.138887,2.325e-05,0x00,true,,
"I2C","data",0.13891175,2.325e-05,0x00,true,,
"I2C","data",0.1389365,2.325e-05,0x00,true,,
"I2C","data",0.138961187,2.325e-05,0x00,true,,
"I2C","data",0.138985937,2.325e-05,0x00,true,,
"I2C","data",0.139010688,2.325e-05,0x00,true,,
"I2C","data",0.139035437,2.325e-05,0x00,true,,
"I2C","data",0.139060187,2.325e-05,0x00,true,,
"I2C","data",0.139084875,2.325e-05,0x00,true,,
"I2C","data",0.139109625,2.325e-05,0x00,true,,
"I2C","data",0.139134375,2.325e-05,0x00,true,,
"I2C","data",0.139159125,2.325e-05,0x00,true,,
"I2C","data",0.139183813,2.33125e-05,0x00,true,,
"I2C","data",0.139208562,2.325e-05,0x00,true,,
"I2C","data",0.139233313,2.325e-05,0x00,true,,
"I2C","data",0.139258063,2.325e-05,0x00,true,,
"I2C","data",0.13928275,2.325e-05,0x00,true,,
"I2C","data",0.1393075,2.325e-05,0x00,true,,
"I2C","data",0.13933225,2.325e-05,0x00,true,,
"I2C","data",0.139357,2.325e-05,0x00,true,,
"I2C","data",0.139381687,2.325e-05,0x00,true,,
"I2C","data",0.139406438,2.325e-05,0x00,true,,
"I2C","data",0.139431187,2.325e-05,0x00,true,,
"I2C","data",0.139455937,2.325e-05,0x00,true,,
"I2C","data",0.139480625,2.325e-05,0x00,true,,
"I2C","data",0.139505375,2.325e-05,0x00,true,,
"I2C","data",0.139530125,2.325e-05,0x00,true,,
"I2C","data",0.139554875,2.325e-05,0x00,true,,
"I2C","data",0.139579563,2.325e-05,0x00,true,,
"I2C","data",0.139604312,2.325e-05,0x00,true,,
"I2C","data",0.139629063,2.325e-05,0x00,true,,
"I2C","data",0.139653813,2.325e-05,0x00,false,,
"I2C","stop",0.13968,6.25e-08,,,,
"I2C","start",0.139685562,6.25e-08,,,,
"I2C","address",0.139688125,2.325e-05,,true,0x25,false
"I2C","data",0.139716875,2.3125e-05,0x40,true,,
"I2C","start",0.139745625,6.25e-08,,,,
"I2C","address",0.13974825,2.325e-05,,true,0x25,true
"I2C","data",0.139781688,2.3125e-05,0x00,false,,
"I2C","stop",0.139807812,6.25e-08,,,,
"Async Serial [1]","data",0.199420062,9.5e-06,0xB1,,,
"Async Serial [1]","data",0.199430063,9.5e-06,0x04,,,
"Async Serial [1]","data",0.199440062,9.5e-06,0x00,,,
"Async Serial [1]","data",0.199450062,9.5e-06,0x00,,,
"Async Serial [1]","data",0.199460063,9.5e-06,0xFC,,,
"Async Serial [1]","data",0.199470062,9.5e-06,0xB3,,,
"Async Serial","data",0.199514375,9.5e-06,0xB2,,,
"Async Serial","data",0.1995245,9.5e-06,0x00,,,
"Async Serial","data",0.199534625,9.5e-06,0x01,,,
"Async Serial","data",0.199544688,9.5e-06,0x03,,,
"Async Serial","data",0.199554813,9.5e-06,0xFC,,,
"Async Serial","data",0.199564938,9.5e-06,0xB3,,,
"Async Serial [1]","data",0.301456813,9.5e-06,0xB1,,,
"Async Serial [1]","data",0.301466813,9.5e-06,0x04,,,
"Async Serial [1]","data",0.301476813,9.5e-06,0x00,,,
"Async Serial [1]","data",0.301486812,9.5e-06,0x00,,,
"Async Serial [1]","data",0.301496875,9.5e-06,0xFC,,,
"Async Serial [1]","data",0.301506875,9.5e-06,0xB3,,,
"Async Serial","data",0.301549312,9.5e-06,0xB2,,,
"Async Serial","data",0.301559438,9.5e-06,0x00,,,
"Async Serial","data",0.301569562,9.5e-06,0x01,,,
"Async Serial","data",0.301579688,9.5e-06,0x03,,,
"Async Serial","data",0.30158975,9.5e-06,0xFC,,,
"Async Serial","data",0.301599875,9.5e-06,0xB3,,,
"Async Serial [1]","data",0.403493625,9.5e-06,0xB1,,,
"Async Serial [1]","data",0.403503625,9.5e-06,0x04,,,
"Async Serial [1]","data",0.403513625,9.5e-06,0x00,,,
"Async Serial [1]","data",0.403523625,9.5e-06,0x00,,,
"Async Serial [1]","data",0.403533625,9.5e-06,0xFC,,,
"Async Serial [1]","data",0.403543625,9.5e-06,0xB3,,,
"Async Serial","data",0.403590438,9.5e-06,0xB2,,,
"Async Serial","data",0.4036005,9.5e-06,0x00,,,
"Async Serial","data",0.403610625,9.5e-06,0x01,,,
"Async Serial","data",0.403624812,9.5e-06,0x03,,,
"Async Serial","data",0.403634938,9.5e-06,0xFC,,,
"Async Serial","data",0.403645062,9.5e-06,0xB3,,,
"I2C","start",0.437696,6.25e-08,,,,
"I2C","address",0.437698562,2.325e-05,,true,0x25,false
"I2C","stop",0.437728687,6.25e-08,,,,
"I2C","start",0.437733812,6.25e-08,,,,
"I2C","address",0.437736438,2.325e-05,,true,0x25,false
"I2C","data",0.437765125,2.31875e-05,0x00,true,,
"I2C","start",0.437793938,6.25e-08,,,,
"I2C","address",0.4377965,2.33125e-05,,true,0x25,true
"I2C","data",0.437829937,2.31875e-05,0xA5,true,,
"I2C","data",0.437854625,2.325e-05,0x03,false,,
"I2C","stop",0.437880812,6.25e-08,,,,
"I2C","start",0.43788675,6.25e-08,,,,
"I2C","address",0.437889375,2.325e-05,,true,0x25,false
"I2C","data",0.437918062,2.3125e-05,0x40,true,,
"I2C","start",0.437946813,6.25e-08,,,,
"I2C","address",0.437949437,2.325e-05,,true,0x25,true
"I2C","data",0.437982938,2.325e-05,0x00,false,,
"I2C","stop",0.438009125,6.25e-08,,,,
"I2C","start",0.438014313,6.25e-08,,,,
"I2C","address",0.438016875,2.325e-05,,true,0x25,false
"I2C","data",0.438045625,2.3125e-05,0x00,true,,
"I2C","start",0.438074375,6.25e-08,,,,
"I2C","address",0.438077,2.325e-05,,true,0x25,true
"I2C","data",0.438110438,2.3125e-05,0xA5,true,,
"I2C","data",0.438135063,2.325e-05,0x03,true,,
"I2C","data",0.438159813,2.325e-05,0x00,true,,
"I2C","data",0.4381845,2.325e-05,0x00,true,,
"I2C","data",0.43820925,2.325e-05,0x28,true,,
"I2C","data",0.438234,2.325e-05,0xEF,true,,
"I2C","data",0.43825875,2.325e-05,0x5B,true,,
"I2C","data",0.4382835,2.325e-05,0x00,true,,
"I2C","data",0.438308188,2.325e-05,0x03,true,,
"I2C","data",0.438332938,2.325e-05,0x00,true,,
"I2C","data",0.438357687,2.325e-05,0x00,true,,
"I2C","data",0.438382375,2.325e-05,0x00,true,,
"I2C","data",0.438407125,2.325e-05,0x40,true,,
"I2C","data",0.438431875,2.325e-05,0x0D,true,,
"I2C","data",0.438456625,2.325e-05,0x03,true,,
"I2C","data",0.438481312,2.325e-05,0x00,true,,
"I2C","data",0.438506063,2.325e-05,0x01,true,,
"I2C","data",0.438530812,2.325e-05,0x00,true,,
"I2C","data",0.438555562,2.325e-05,0x01,true,,
"I2C","data",0.43858025,2.33125e-05,0x00,true,,
"I2C","data",0.438605,2.325e-05,0x80,true,,
"I2C","data",0.43862975,2.325e-05,0x8D,true,,
"I2C","data",0.4386545,2.325e-05,0x5B,true,,
"I2C","data",0.43867925,2.325e-05,0x00,true,,
"I2C","data",0.438704,2.325e-05,0x20,true,,
"I2C","data",0.438728687,2.325e-05,0xBF,true,,
"I2C","data",0.438753438,2.325e-05,0x02,true,,
"I2C","data",0.438778188,2.325e-05,0x00,true,,
"I2C","data",0.438802937,2.325e-05,0x00,true,,
"I2C","data",0.438827625,2.33125e-05,0x12,true,,
"I2C","data",0.438852375,2.325e-05,0x7A,true,,
"I2C","data",0.438877125,2.325e-05,0x00,true,,
"I2C","data",0.438901875,2.325e-05,0x60,true,,
"I2C","data",0.438926625,2.325e-05,0xE3,true,,
"I2C","data",0.438951375,2.325e-05,0x16,true,,
"I2C","data",0.438976062,2.325e-05,0x00,true,,
"I2C","data",0.439000813,2.325e-05,0x30,true,,
"I2C","data",0.439025563,2.325e-05,0x11,true,,
"I2C","data",0.439050312,2.325e-05,0x00,true,,
"I2C","data",0.439075,2.325e-05,0x00,true,,
"I2C","data",0.43909975,2.325e-05,0xD0,true,,
"I2C","data",0.4391245,2.325e-05,0xEE,true,,
"I2C","data",0.439149187,2.33125e-05,0xFF,true,,
"I2C","data",0.439173938,2.325e-05,0xFF,true,,
"I2C","data",0.439198688,2.325e-05,0x20,true,,
"I2C","data",0.439223437,2.325e-05,0x03,true,,
"I2C","data",0.439248187,2.325e-05,0xD0,true,,
"I2C","data",0.439272875,2.325e-05,0x07,true,,
"I2C","data",0.439297625,2.325e-05,0x64,true,,
"I2C","data",0.439322375,2.325e-05,0x00,true,,
"I2C","data",0.439347125,2.325e-05,0xF4,true,,
"I2C","data",0.439371875,2.325e-05,0x01,true,,
"I2C","data",0.439396562,2.325e-05,0x00,true,,
"I2C","data",0.439421312,2.325e-05,0x00,true,,
"I2C","data",0.439446063,2.325e-05,0x00,true,,
"I2C","data",0.439470812,2.325e-05,0x00,true,,
"I2C","data",0.439495562,2.325e-05,0x00,true,,
"I2C","data",0.43952025,2.325e-05,0x00,true,,
"I2C","data",0.439545,2.325e-05,0x00,true,,
"I2C","data",0.43956975,2.325e-05,0x00,true,,
"I2C","data",0.4395945,2.325e-05,0x00,true,,
"I2C","data",0.439619188,2.33125e-05,0x00,true,,
"I2C","data",0.439643938,2.325e-05,0x00,true,,
"I2C","data",0.439668687,2.325e-05,0x00,true,,
"I2C","data",0.439693438,2.325e-05,0x00,true,,
"I2C","data",0.439718188,2.325e-05,0x00,true,,
"I2C","data",0.439742875,2.325e-05,0x00,true,,
"I2C","data",0.439767625,2.325e-05,0x00,true,,
"I2C","data",0.439792375,2.325e-05,0x00,true,,
"I2C","data",0.439817125,2.325e-05,0x00,true,,
"I2C","data",0.439841812,2.33125e-05,0x00,true,,
"I2C","data",0.439866563,2.325e-05,0x00,true,,
"I2C","data",0.439891313,2.325e-05,0x00,true,,
"I2C","data",0.439916062,2.325e-05,0x00,true,,
"I2C","data",0.439940813,2.325e-05,0x00,true,,
"I2C","data",0.4399655,2.325e-05,0x00,true,,
"I2C","data",0.43999025,2.325e-05,0x00,true,,
"I2C","data",0.440015,2.325e-05,0x00,true,,
"I2C","data",0.44003975,2.325e-05,0x00,true,,
"I2C","data",0.4400645,2.325e-05,0x00,true,,
"I2C","data",0.440089187,2.325e-05,0x00,true,,
"I2C","data",0.440113937,2.325e-05,0x00,true,,
"I2C","data",0.440138688,2.325e-05,0x00,true,,
"I2C","data",0.440163437,2.325e-05,0x00,true,,
"I2C","data",0.440188125,2.325e-05,0x00,true,,
"I2C","data",0.440212875,2.325e-05,0x00,true,,
"I2C","data",0.440237625,2.325e-05,0x00,true,,
"I2C","data",0.440262375,2.325e-05,0x00,true,,
"I2C","data",0.440287125,2.325e-05,0x00,true,,
"I2C","data",0.440311813,2.325e-05,0x00,true,,
"I2C","data",0.440336562,2.325e-05,0x00,true,,
"I2C","data",0.440361312,2.325e-05,0x00,true,,
"I2C","data",0.440386062,2.325e-05,0x00,true,,
"I2C","data",0.44041075,2.325e-05,0x00,true,,
"I2C","data",0.4404355,2.325e-05,0x00,true,,
"I2C","data",0.44046025,2.325e-05,0x00,false,,
"I2C","stop",0.4404865,6.25e-08,,,,
"I2C","start",0.440491875,6.25e-08,,,,
"I2C","address",0.4404945,2.325e-05,,true,0x25,false
"I2C","data",0.440523188,2.3125e-05,0x40,true,,
"I2C","start",0.440551937,6.25e-08,,,,
"I2C","address",0.440554563,2.325e-05,,true,0x25,true
"I2C","data",0.440588125,2.31875e-05,0x00,false,,
"I2C","stop",0.44061425,6.25e-08,,,,
"Async Serial [1]","data",0.51352375,9.5e-06,0xB1,,,
"Async Serial [1]","data",0.51353375,9.5e-06,0x04,,,
"Async Serial [1]","data",0.51354375,9.5e-06,0x00,,,
"Async Serial [1]","data",0.51355375,9.5e-06,0x00,,,
"Async Serial [1]","data",0.51356375,9.5e-06,0xFC,,,
"Async Serial [1]","data",0.51357375,9.5e-06,0xB3,,,
"Async Serial","data",0.513616813,9.5e-06,0xB2,,,
"Async Serial","data",0.513626937,9.5e-06,0x00,,,
"Async Serial","data",0.513637,9.5e-06,0x01,,,
"Async Serial","data",0.513647125,9.5e-06,0x03,,,
"Async Serial","data",0.51365725,9.5e-06,0xFC,,,
"Async Serial","data",0.513667375,9.5e-06,0xB3,,,
"Async Serial [1]","data",0.6155605,9.5e-06,0xB1,,,
"Async Serial [1]","data",0.6155705,9.5e-06,0x04,,,
"Async Serial [1]","data",0.6155805,9.5e-06,0x00,,,
"Async Serial [1]","data",0.6155905,9.5e-06,0x00,,,
"Async Serial [1]","data",0.6156005,9.5e-06,0xFC,,,
"Async Serial [1]","data",0.6156105,9.5e-06,0xB3,,,
"Async Serial","data",0.615652,9.5e-06,0xB2,,,
"Async Serial","data",0.615662125,9.5e-06,0x00,,,
"Async Serial","data",0.61567225,9.5e-06,0x01,,,
"Async Serial","data",0.615682375,9.5e-06,0x03,,,
"Async Serial","data",0.6156925,9.5e-06,0xFC,,,
"Async Serial","data",0.615702625,9.5e-06,0xB3,,,
"Async Serial [1]","data",0.717597313,9.5e-06,0xB1,,,
"Async Serial [1]","data",0.717607312,9.5e-06,0x04,,,
"Async Serial [1]","data",0.717617313,9.5e-06,0x00,,,
"Async Serial [1]","data",0.717627313,9.5e-06,0x00,,,
"Async Serial [1]","data",0.717637312,9.5e-06,0xFC,,,
"Async Serial [1]","data",0.717647313,9.5e-06,0xB3,,,
"Async Serial","data",0.71769325,9.5e-06,0xB2,,,
"Async Serial","data",0.717703375,9.5e-06,0x00,,,
"Async Serial","data",0.7177135,9.5e-06,0x01,,,
"Async Serial","data",0.717723563,9.5e-06,0x03,,,
"Async Serial","data",0.717733687,9.5e-06,0xFC,,,
"Async Serial","data",0.717743812,9.5e-06,0xB3,,,
"I2C","start",0.73851275,6.24999999e-08,,,,
"I2C","address",0.738515375,2.325e-05,,true,0x25,false
"I2C","stop",0.7385455,6.25000001e-08,,,,
"I2C","start",0.738550625,6.25e-08,,,,
"I2C","address",0.73855325,2.325e-05,,true,0x25,false
"I2C","data",0.738581938,2.325e-05,0x00,true,,
"I2C","start",0.738610688,6.24999999e-08,,,,
"I2C","address",0.738613312,2.325e-05,,true,0x25,true
"I2C","data",0.738646812,2.31875e-05,0xA5,true,,
"I2C","data",0.7386715,2.325e-05,0x03,false,,
"I2C","stop",0.73869775,6.24999999e-08,,,,
"I2C","start",0.7387035,6.25e-08,,,,
"I2C","address",0.738706125,2.325e-05,,true,0x25,false
"I2C","data",0.738734812,2.325e-05,0x40,true,,
"I2C","start",0.738763562,6.25000001e-08,,,,
"I2C","address",0.738766188,2.325e-05,,true,0x25,true
"I2C","data",0.738799625,2.31875e-05,0x00,false,,
"I2C","stop",0.73882575,6.25e-08,,,,
"I2C","start",0.738831,6.24999999e-08,,,,
"I2C","address",0.738833625,2.325e-05,,true,0x25,false
"I2C","data",0.738862313,2.31875e-05,0x00,true,,
"I2C","start",0.738891125,6.25e-08,,,,
"I2C","address",0.738893687,2.325e-05,,true,0x25,true
"I2C","data",0.738927125,2.31875e-05,0xA5,true,,
"I2C","data",0.738951812,2.325e-05,0x03,true,,
"I2C","data",0.7389765,2.325e-05,0x00,true,,
"I2C","data",0.73900125,2.325e-05,0x00,true,,
"I2C","data",0.739026,2.325e-05,0x28,true,,
"I2C","data",0.739050688,2.325e-05,0xEF,true,,
"I2C","data",0.739075438,2.325e-05,0x5B,true,,
"I2C","data",0.739100187,2.325e-05,0x00,true,,
"I2C","data",0.739124937,2.325e-05,0x03,true,,
"I2C","data",0.739149625,2.325e-05,0x00,true,,
"I2C","data",0.739174375,2.325e-05,0x00,true,,
"I2C","data",0.739199125,2.325e-05,0x00,true,,
"I2C","data",0.739223875,2.325e-05,0x40,true,,
"I2C","data",0.739248563,2.325e-05,0x0D,true,,
"I2C","data",0.739273312,2.325e-05,0x03,true,,
"I2C","data",0.739298062,2.325e-05,0x00,true,,
"I2C","data",0.739322812,2.31875e-05,0x01,true,,
"I2C","data",0.7393475,2.325e-05,0x00,true,,
"I2C","data",0.73937225,2.325e-05,0x01,true,,
"I2C","data",0.739397,2.325e-05,0x00,true,,
"I2C","data",0.739421688,2.325e-05,0x80,true,,
"I2C","data",0.739446438,2.325e-05,0x8D,true,,
"I2C","data",0.739471187,2.325e-05,0x5B,true,,
"I2C","data",0.739495937,2.325e-05,0x00,true,,
"I2C","data",0.739520625,2.325e-05,0x20,true,,
"I2C","data",0.739545375,2.325e-05,0xBF,true,,
"I2C","data",0.739570125,2.325e-05,0x02,true,,
"I2C","data",0.739594875,2.325e-05,0x00,true,,
"I2C","data",0.739619563,2.325e-05,0x00,true,,
"I2C","data",0.739644312,2.325e-05,0x12,true,,
"I2C","data",0.739669062,2.325e-05,0x7A,true,,
"I2C","data",0.739693812,2.325e-05,0x00,true,,
"I2C","data",0.7397185,2.325e-05,0x60,true,,
"I2C","data",0.73974325,2.325e-05,0xE3,true,,
"I2C","data",0.739768,2.325e-05,0x16,true,,
"I2C","data",0.73979275,2.31875e-05,0x00,true,,
"I2C","data",0.739817437,2.325e-05,0x30,true,,
"I2C","data",0.739842187,2.325e-05,0x11,true,,
"I2C","data",0.739866937,2.325e-05,0x00,true,,
"I2C","data",0.739891625,2.325e-05,0x00,true,,
"I2C","data",0.739916375,2.325e-05,0xD0,true,,
"I2C","data",0.739941125,2.325e-05,0xEE,true,,
"I2C","data",0.739965813,2.325e-05,0xFF,true,,
"I2C","data",0.739990562,2.325e-05,0xFF,true,,
"I2C","data",0.740015312,2.325e-05,0x20,true,,
"I2C","data",0.740040062,2.325e-05,0x03,true,,
"I2C","data",0.74006475,2.325e-05,0xD0,true,,
"I2C","data",0.7400895,2.325e-05,0x07,true,,
"I2C","data",0.74011425,2.325e-05,0x64,true,,
"I2C","data",0.740138938,2.325e-05,0x00,true,,
"I2C","data",0.740163687,2.325e-05,0xF4,true,,
"I2C","data",0.740188437,2.325e-05,0x01,true,,
"I2C","data",0.740213125,2.33125e-05,0x00,true,,
"I2C","data",0.740237875,2.325e-05,0x00,true,,
"I2C","data",0.740262625,2.325e-05,0x00,true,,
"I2C","data",0.740287375,2.325e-05,0x00,true,,
"I2C","data",0.740312063,2.325e-05,0x00,true,,
"I2C","data",0.740336813,2.325e-05,0x00,true,,
"I2C","data",0.740361562,2.325e-05,0x00,true,,
"I2C","data",0.74038625,2.325e-05,0x00,true,,
"I2C","data",0.740411,2.325e-05,0x00,true,,
"I2C","data",0.74043575,2.325e-05,0x00,true,,
"I2C","data",0.740460438,2.325e-05,0x00,true,,
"I2C","data",0.740485188,2.325e-05,0x00,true,,
"I2C","data",0.740509938,2.325e-05,0x00,true,,
"I2C","data",0.740534625,2.33125e-05,0x00,true,,
"I2C","data",0.740559375,2.325e-05,0x00,true,,
"I2C","data",0.740584125,2.325e-05,0x00,true,,
"I2C","data",0.740608875,2.325e-05,0x00,true,,
"I2C","data",0.740633563,2.325e-05,0x00,true,,
"I2C","data",0.740658313,2.325e-05,0x00,true,,
"I2C","data",0.740683063,2.325e-05,0x00,true,,
"I2C","data",0.74070775,2.33125e-05,0x00,true,,
"I2C","data",0.7407325,2.325e-05,0x00,true,,
"I2C","data",0.74075725,2.325e-05,0x00,true,,
"I2C","data",0.740782,2.325e-05,0x00,true,,
"I2C","data",0.740806688,2.325e-05,0x00,true,,
"I2C","data",0.740831438,2.325e-05,0x00,true,,
"I2C","data",0.740856188,2.325e-05,0x00,true,,
"I2C","data",0.740880875,2.325e-05,0x00,true,,
"I2C","data",0.740905625,2.325e-05,0x00,true,,
"I2C","data",0.740930375,2.325e-05,0x00,true,,
"I2C","data",0.740955062,2.325e-05,0x00,true,,
"I2C","data",0.740979813,2.325e-05,0x00,true,,
"I2C","data",0.741004563,2.325e-05,0x00,true,,
"I2C","data",0.741029313,2.325e-05,0x00,true,,
"I2C","data",0.741054,2.325e-05,0x00,true,,
"I2C","data",0.74107875,2.325e-05,0x00,true,,
"I2C","data",0.7411035,2.325e-05,0x00,true,,
"I2C","data",0.741128187,2.325e-05,0x00,true,,
"I2C","data",0.741152937,2.325e-05,0x00,true,,
"I2C","data",0.741177688,2.325e-05,0x00,true,,
"I2C","data",0.741202438,2.325e-05,0x00,true,,
"I2C","data",0.741227125,2.325e-05,0x00,true,,
"I2C","data",0.741251875,2.325e-05,0x00,true,,
"I2C","data",0.741276625,2.325e-05,0x00,false,,
"I2C","stop",0.741302812,6.25e-08,,,,
"I2C","start",0.741307875,6.25e-08,,,,
"I2C","address",0.741310438,2.325e-05,,true,0x25,false
"I2C","data",0.741339125,2.31875e-05,0x40,true,,
"I2C","start",0.741367937,6.25000001e-08,,,,
"I2C","address",0.741370562,2.325e-05,,true,0x25,true
"I2C","data",0.741404,2.325e-05,0x00,false,,
"I2C","stop",0.74143025,6.25e-08,,,,
"Async Serial [1]","data",0.819633063,9.5e-06,0xB1,,,
"Async Serial [1]","data",0.819643062,9.5e-06,0x04,,,
"Async Serial [1]","data",0.819653063,9.5e-06,0x00,,,
"Async Serial [1]","data",0.819663062,9.5e-06,0x00,,,
"Async Serial [1]","data",0.819673125,9.5e-06,0xFC,,,
"Async Serial [1]","data",0.819683125,9.5e-06,0xB3,,,
"Async Serial","data",0.819728937,9.5e-06,0xB2,,,
"Async Serial","data",0.819739062,9.5e-06,0x00,,,
"Async Serial","data",0.819749188,9.5e-06,0x01,,,
"Async Serial","data",0.819759313,9.5e-06,0x03,,,
"Async Serial","data",0.819769375,9.5e-06,0xFC,,,
"Async Serial","data",0.8197795,9.5e-06,0xB3,,,
"Async Serial [1]","data",0.929663187,9.5e-06,0xB1,,,
"Async Serial [1]","data",0.929673188,9.5e-06,0x04,,,
"Async Serial [1]","data",0.929683188,9.5e-06,0x00,,,
"Async Serial [1]","data",0.929693187,9.5e-06,0x00,,,
"Async Serial [1]","data",0.929703188,9.5e-06,0xFC,,,
"Async Serial [1]","data",0.929713187,9.5e-06,0xB3,,,
"Async Serial","data",0.929763688,9.5e-06,0xB2,,,
"Async Serial","data",0.929773812,9.5e-06,0x00,,,
"Async Serial","data",0.929783937,9.5e-06,0x01,,,
"Async Serial","data",0.929794062,9.5e-06,0x03,,,
"Async Serial","data",0.929804188,9.5e-06,0xFC,,,
"Async Serial","data",0.92981425,9.5e-06,0xB3,,,
"Async Serial [1]","data",1.0317,9.5e-06,0xB1,,,
"Async Serial [1]","data",1.03171,9.5e-06,0x04,,,
"Async Serial [1]","data",1.03172,9.5e-06,0x00,,,
"Async Serial [1]","data",1.03173,9.5e-06,0x00,,,
"Async Serial [1]","data",1.03174,9.5e-06,0xFC,,,
"Async Serial [1]","data",1.03175,9.5e-06,0xB3,,,
"Async Serial","data",1.03179625,9.5e-06,0xB2,,,
"Async Serial","data",1.03180637,9.5e-06,0x00,,,
"Async Serial","data",1.0318165,9.5e-06,0x01,,,
"Async Serial","data",1.03182663,9.5e-06,0x03,,,
"Async Serial","data",1.03183675,9.5e-06,0xFC,,,
"Async Serial","data",1.03184688,9.5e-06,0xB3,,,
"I2C","start",1.03932725,6.25000002e-08,,,,
"I2C","address",1.03932987,2.325e-05,,true,0x25,false
"I2C","stop",1.03936012,6.25e-08,,,,
"I2C","start",1.039365,6.25e-08,,,,
"I2C","address",1.03936762,2.325e-05,,true,0x25,false
"I2C","data",1.03939631,2.33125e-05,0x00,true,,
"I2C","start",1.03942512,6.25e-08,,,,
"I2C","address",1.03942769,2.325e-05,,true,0x25,true
"I2C","data",1.03946113,2.31875e-05,0xA5,true,,
"I2C","data",1.03948581,2.325e-05,0x03,false,,
"I2C","stop",1.039512,6.25e-08,,,,
"I2C","start",1.03951794,6.25e-08,,,,
"I2C","address",1.0395205,2.325e-05,,true,0x25,false
"I2C","data",1.03954937,2.3125e-05,0x40,true,,
"I2C","start",1.039578,6.25e-08,,,,
"I2C","address",1.03958062,2.325e-05,,true,0x25,true
"I2C","data",1.03961419,2.31875e-05,0x00,false,,
"I2C","stop",1.03964031,6.25e-08,,,,
"I2C","start",1.03964562,6.25e-08,,,,
"I2C","address",1.03964819,2.325e-05,,true,0x25,false
"I2C","data",1.03967694,2.325e-05,0x00,true,,
"I2C","start",1.03970569,6.25000002e-08,,,,
"I2C","address",1.03970831,2.325e-05,,true,0x25,true
