name,type,start_time,duration,"data","ack","address","read"
"Async Serial [1]","data",138.733676,9.49999999e-06,0xB1,,,
"Async Serial [1]","data",138.733686,9.49999999e-06,0x01,,,
"Async Serial [1]","data",138.733696,9.50000001e-06,0x02,,,
"Async Serial [1]","data",138.733706,9.49999999e-06,0x46,,,
"Async Serial [1]","data",138.733716,9.49999999e-06,0xB7,,,
"Async Serial [1]","data",138.733726,9.50000001e-06,0xB3,,,
"Async Serial","data",138.733965,9.49999999e-06,0xB2,,,
"Async Serial","data",138.733975,9.50000001e-06,0x00,,,
"Async Serial","data",138.733985,9.49999999e-06,0x46,,,
"Async Serial","data",138.733995,9.50000001e-06,0x09,,,
"Async Serial","data",138.734005,9.49999999e-06,0x00,,,
"Async Serial","data",138.734015,9.50000001e-06,0x28,,,
"Async Serial","data",138.734025,9.50000001e-06,0xEF,,,
"Async Serial","data",138.734035,9.49999996e-06,0x5B,,,
"Async Serial","data",138.734046,9.50000001e-06,0x00,,,
"Async Serial","data",138.734056,9.49999999e-06,0x03,,,
"Async Serial","data",138.734066,9.49999999e-06,0x00,,,
"Async Serial","data",138.734076,9.50000001e-06,0x00,,,
"Async Serial","data",138.734086,9.50000001e-06,0x00,,,
"Async Serial","data",138.734096,9.49999999e-06,0x40,,,
"Async Serial","data",138.734106,9.49999996e-06,0x0D,,,
"Async Serial","data",138.734116,9.50000001e-06,0x03,,,
"Async Serial","data",138.734126,9.49999999e-06,0x00,,,
"Async Serial","data",138.734136,9.49999999e-06,0x0A,,,
"Async Serial","data",138.734147,9.49999999e-06,0x00,,,
"Async Serial","data",138.734157,9.50000001e-06,0x01,,,
"Async Serial","data",138.734167,9.49999999e-06,0x00,,,
"Async Serial","data",138.734177,9.50000001e-06,0x80,,,
"Async Serial","data",138.734187,9.49999999e-06,0x8D,,,
"Async Serial","data",138.734197,9.49999999e-06,0x5B,,,
"Async Serial","data",138.734207,9.50000001e-06,0x00,,,
"Async Serial","data",138.734217,9.50000001e-06,0x20,,,
"Async Serial","data",138.734227,9.50000001e-06,0xBF,,,
"Async Serial","data",138.734238,9.49999999e-06,0x02,,,
"Async Serial","data",138.734248,9.49999999e-06,0x00,,,
"Async Serial","data",138.734258,9.50000001e-06,0x00,,,
"Async Serial","data",138.734268,9.50000001e-06,0x12,,,
"Async Serial","data",138.734278,9.50000001e-06,0x7A,,,
"Async Serial","data",138.734288,9.49999999e-06,0x00,,,
"Async Serial","data",138.734298,9.50000001e-06,0x60,,,
"Async Serial","data",138.734308,9.50000001e-06,0xE3,,,
"Async Serial","data",138.734318,9.50000001e-06,0x16,,,
"Async Serial","data",138.734328,9.49999996e-06,0x00,,,
"Async Serial","data",138.734339,9.49999999e-06,0x30,,,
"Async Serial","data",138.734349,9.50000001e-06,0x11,,,
"Async Serial","data",138.734359,9.49999999e-06,0x00,,,
"Async Serial","data",138.734369,9.50000001e-06,0x00,,,
"Async Serial","data",138.734379,9.49999999e-06,0xD0,,,
"Async Serial","data",138.734389,9.50000001e-06,0xEE,,,
"Async Serial","data",138.734399,9.49999999e-06,0xFF,,,
"Async Serial","data",138.734409,9.50000001e-06,0xFF,,,
"Async Serial","data",138.734419,9.50000001e-06,0x20,,,
"Async Serial","data",138.734429,9.49999996e-06,0x03,,,
"Async Serial","data",138.73444,9.50000001e-06,0xD0,,,
"Async Serial","data",138.73445,9.49999999e-06,0x07,,,
"Async Serial","data",138.73446,9.49999999e-06,0x64,,,
"Async Serial","data",138.73447,9.49999999e-06,0x00,,,
"Async Serial","data",138.73448,9.50000001e-06,0xF4,,,
"Async Serial","data",138.73449,9.49999999e-06,0x01,,,
"Async Serial","data",138.7345,9.50000001e-06,0x00,,,
"Async Serial","data",138.73451,9.50000001e-06,0x00,,,
"Async Serial","data",138.73452,9.49999999e-06,0x00,,,
"Async Serial","data",138.734531,9.50000001e-06,0x00,,,
"Async Serial","data",138.734541,9.49999999e-06,0x00,,,
"Async Serial","data",138.734551,9.50000001e-06,0x00,,,
"Async Serial","data",138.734561,9.49999999e-06,0x00,,,
"Async Serial","data",138.734571,9.50000001e-06,0x00,,,
"Async Serial","data",138.734581,9.49999999e-06,0x00,,,
"Async Serial","data",138.734591,9.49999999e-06,0x00,,,
"Async Serial","data",138.734601,9.50000001e-06,0x00,,,
"Async Serial","data",138.734611,9.50000001e-06,0x00,,,
"Async Serial","data",138.734621,9.50000001e-06,0x09,,,
"Async Serial","data",138.734632,9.49999999e-06,0x8C,,,
"Async Serial","data",138.734642,9.50000001e-06,0x00,,,
"Async Serial","data",138.734652,9.50000001e-06,0x00,,,
"Async Serial","data",138.734662,9.50000001e-06,0x01,,,
"Async Serial","data",138.734672,9.49999999e-06,0x00,,,
"Async Serial","data",138.734682,9.49999999e-06,0x00,,,
"Async Serial","data",138.734692,9.50000001e-06,0x01,,,
"Async Serial","data",138.734702,9.50000001e-06,0xCC,,,
"Async Serial","data",138.734712,9.50000001e-06,0xB3,,,
"Async Serial [1]","data",138.73479,9.49999999e-06,0xB1,,,
"Async Serial [1]","data",138.7348,9.50000001e-06,0x02,,,
"Async Serial [1]","data",138.73481,9.50000001e-06,0x40,,,
"Async Serial [1]","data",138.73482,9.50000001e-06,0x01,,,
"Async Serial [1]","data",138.73483,9.49999999e-06,0x89,,,
"Async Serial [1]","data",138.73484,9.49999999e-06,0x34,,,
"Async Serial [1]","data",138.73485,9.50000001e-06,0xB3,,,
"Async Serial","data",138.734896,9.49999999e-06,0xB2,,,
"Async Serial","data",138.734906,9.50000001e-06,0x00,,,
"Async Serial","data",138.734916,9.49999999e-06,0x00,,,
"Async Serial","data",138.734927,9.50000001e-06,0x00,,,
"Async Serial","data",138.734937,9.49999999e-06,0xB3,,,
"Async Serial [1]","data",138.734992,9.50000001e-06,0xB1,,,
"Async Serial [1]","data",138.735002,9.49999999e-06,0x02,,,
"Async Serial [1]","data",138.735012,9.49999999e-06,0x41,,,
"Async Serial [1]","data",138.735022,9.50000001e-06,0x01,,,
"Async Serial [1]","data",138.735032,9.50000001e-06,0x8C,,,
"Async Serial [1]","data",138.735042,9.50000001e-06,0x30,,,
"Async Serial [1]","data",138.735052,9.49999996e-06,0xB3,,,
"Async Serial","data",138.735105,9.50000001e-06,0xB2,,,
"Async Serial","data",138.735115,9.49999999e-06,0x00,,,
"Async Serial","data",138.735126,9.50000001e-06,0x00,,,
"Async Serial","data",138.735136,9.50000001e-06,0x00,,,
"Async Serial","data",138.735146,9.49999999e-06,0xB3,,,
"Async Serial [1]","data",138.735195,9.49999999e-06,0xB1,,,
"Async Serial [1]","data",138.735205,9.50000001e-06,0x02,,,
"Async Serial [1]","data",138.735215,9.49999999e-06,0x43,,,
"Async Serial [1]","data",138.735225,9.50000001e-06,0x03,,,
"Async Serial [1]","data",138.735235,9.50000001e-06,0x00,,,
"Async Serial [1]","data",138.735245,9.50000001e-06,0x01,,,
"Async Serial [1]","data",138.735255,9.49999999e-06,0x00,,,
"Async Serial [1]","data",138.735265,9.49999999e-06,0xB7,,,
"Async Serial [1]","data",138.735275,9.50000001e-06,0xB3,,,
"Async Serial","data",138.73533,9.50000001e-06,0xB2,,,
"Async Serial","data",138.73534,9.49999999e-06,0x00,,,
"Async Serial","data",138.73535,9.50000001e-06,0x00,,,
"Async Serial","data",138.73536,9.49999999e-06,0x00,,,
"Async Serial","data",138.73537,9.49999999e-06,0xB3,,,
"Async Serial [1]","data",138.735398,9.49999996e-06,0xB1,,,
"Async Serial [1]","data",138.735408,9.49999996e-06,0x02,,,
"Async Serial [1]","data",138.735418,9.50000001e-06,0x48,,,
"Async Serial [1]","data",138.735428,9.50000001e-06,0x18,,,
"Async Serial [1]","data",138.735438,9.50000001e-06,0x00,,,
"Async Serial [1]","data",138.735448,9.49999999e-06,0x00,,,
"Async Serial [1]","data",138.735458,9.49999999e-06,0x00,,,
"Async Serial [1]","data",138.735468,9.50000001e-06,0x00,,,
"Async Serial [1]","data",138.735478,9.50000001e-06,0xC0,,,
"Async Serial [1]","data",138.735488,9.49999999e-06,0x34,,,
"Async Serial [1]","data",138.735498,9.50000001e-06,0x00,,,
"Async Serial [1]","data",138.735508,9.50000001e-06,0x00,,,
"Async Serial [1]","data",138.735518,9.49999996e-06,0x20,,,
"Async Serial [1]","data",138.735528,9.50000001e-06,0x4E,,,
"Async Serial [1]","data",138.735538,9.50000001e-06,0x00,,,
"Async Serial [1]","data",138.735548,9.50000001e-06,0x00,,,
"Async Serial [1]","data",138.735558,9.49999999e-06,0x00,,,
"Async Serial [1]","data",138.735568,9.49999999e-06,0x5A,,,
"Async Serial [1]","data",138.735578,9.50000001e-06,0x62,,,
"Async Serial [1]","data",138.735588,9.50000001e-06,0x02,,,
"Async Serial [1]","data",138.735598,9.50000001e-06,0x76,,,
"Async Serial [1]","data",138.735608,9.49999996e-06,0x01,,,
"Async Serial [1]","data",138.735618,9.49999999e-06,0x00,,,
"Async Serial [1]","data",138.735628,9.50000001e-06,0x00,,,
"Async Serial [1]","data",138.735638,9.50000001e-06,0x57,,,
"Async Serial [1]","data",138.735648,9.50000001e-06,0x13,,,
"Async Serial [1]","data",138.735658,9.49999999e-06,0x7E,,,
"Async Serial [1]","data",138.735668,9.49999999e-06,0x03,,,
"Async Serial [1]","data",138.735678,9.50000001e-06,0x1C,,,
"Async Serial [1]","data",138.735688,9.50000001e-06,0xB3,,,
"Async Serial","data",138.735804,9.49999999e-06,0xB2,,,
"Async Serial","data",138.735814,9.50000001e-06,0x00,,,
"Async Serial","data",138.735824,9.49999999e-06,0x00,,,
"Async Serial","data",138.735834,9.50000001e-06,0x00,,,
"Async Serial","data",138.735844,9.50000001e-06,0xB3,,,
"Async Serial [1]","data",138.735905,9.50000001e-06,0xB1,,,
"Async Serial [1]","data",138.735915,9.50000001e-06,0x02,,,
"Async Serial [1]","data",138.735925,9.49999999e-06,0x40,,,
"Async Serial [1]","data",138.735935,9.50000001e-06,0x01,,,
"Async Serial [1]","data",138.735945,9.50000001e-06,0x09,,,
"Async Serial [1]","data",138.735955,9.49999999e-06,0xB4,,,
"Async Serial [1]","data",138.735965,9.49999999e-06,0xB3,,,
"Async Serial","data",138.736013,9.50000001e-06,0xB2,,,
"Async Serial","data",138.736023,9.50000001e-06,0x00,,,
"Async Serial","data",138.736033,9.49999996e-06,0x00,,,
"Async Serial","data",138.736043,9.50000001e-06,0x00,,,
"Async Serial","data",138.736053,9.50000001e-06,0xB3,,,
"Async Serial [1]","data",138.786077,9.49999999e-06,0xB1,,,
"Async Serial [1]","data",138.786087,9.49999999e-06,0x01,,,
"Async Serial [1]","data",138.786097,9.50000001e-06,0x02,,,
"Async Serial [1]","data",138.786107,9.50000001e-06,0x46,,,
"Async Serial [1]","data",138.786117,9.49999999e-06,0xB7,,,
"Async Serial [1]","data",138.786127,9.49999999e-06,0xB3,,,
"Async Serial","data",138.786379,9.49999999e-06,0xB2,,,
"Async Serial","data",138.786389,9.50000001e-06,0x00,,,
"Async Serial","data",138.786399,9.49999999e-06,0x46,,,
"Async Serial","data",138.78641,9.50000001e-06,0x09,,,
"Async Serial","data",138.78642,9.49999999e-06,0x00,,,
"Async Serial","data",138.78643,9.50000001e-06,0x28,,,
"Async Serial","data",138.78644,9.50000001e-06,0xEF,,,
"Async Serial","data",138.78645,9.50000001e-06,0x5B,,,
"Async Serial","data",138.78646,9.50000001e-06,0x00,,,
"Async Serial","data",138.78647,9.49999999e-06,0x03,,,
"Async Serial","data",138.78648,9.50000001e-06,0x00,,,
"Async Serial","data",138.78649,9.49999999e-06,0x00,,,
"Async Serial","data",138.786501,9.50000001e-06,0x00,,,
"Async Serial","data",138.786511,9.49999999e-06,0x40,,,
"Async Serial","data",138.786521,9.50000001e-06,0x0D,,,
"Async Serial","data",138.786531,9.49999999e-06,0x03,,,
"Async Serial","data",138.786541,9.50000001e-06,0x00,,,
"Async Serial","data",138.786551,9.50000001e-06,0x0A,,,
"Async Serial","data",138.786561,9.49999999e-06,0x00,,,
"Async Serial","data",138.786571,9.50000001e-06,0x01,,,
"Async Serial","data",138.786581,9.49999999e-06,0x00,,,
"Async Serial","data",138.786591,9.50000001e-06,0x80,,,
"Async Serial","data",138.786602,9.49999999e-06,0x8D,,,
"Async Serial","data",138.786612,9.50000001e-06,0x5B,,,
"Async Serial","data",138.786622,9.49999999e-06,0x00,,,
"Async Serial","data",138.786632,9.50000001e-06,0x20,,,
"Async Serial","data",138.786642,9.50000001e-06,0xBF,,,
"Async Serial","data",138.786652,9.50000001e-06,0x02,,,
"Async Serial","data",138.786662,9.50000001e-06,0x00,,,
"Async Serial","data",138.786672,9.49999999e-06,0x00,,,
"Async Serial","data",138.786682,9.50000001e-06,0x12,,,
"Async Serial","data",138.786693,9.49999999e-06,0x7A,,,
"Async Serial","data",138.786703,9.50000001e-06,0x00,,,
"Async Serial","data",138.786713,9.49999999e-06,0x60,,,
"Async Serial","data",138.786723,9.50000001e-06,0xE3,,,
"Async Serial","data",138.786733,9.50000001e-06,0x16,,,
"Async Serial","data",138.786743,9.50000001e-06,0x00,,,
"Async Serial","data",138.786753,9.49999999e-06,0x30,,,
"Async Serial","data",138.786763,9.49999999e-06,0x11,,,
"Async Serial","data",138.786773,9.50000001e-06,0x00,,,
"Async Serial","data",138.786784,9.49999996e-06,0x00,,,
"Async Serial","data",138.786794,9.50000001e-06,0xD0,,,
"Async Serial","data",138.786804,9.49999999e-06,0xEE,,,
"Async Serial","data",138.786814,9.49999999e-06,0xFF,,,
"Async Serial","data",138.786824,9.49999999e-06,0xFF,,,
"Async Serial","data",138.786834,9.50000001e-06,0x20,,,
"Async Serial","data",138.786844,9.50000001e-06,0x03,,,
"Async Serial","data",138.786854,9.49999996e-06,0xD0,,,
"Async Serial","data",138.786864,9.50000001e-06,0x07,,,
"Async Serial","data",138.786874,9.50000001e-06,0x64,,,
"Async Serial","data",138.786885,9.49999999e-06,0x00,,,
"Async Serial","data",138.786895,9.49999999e-06,0xF4,,,
"Async Serial","data",138.786905,9.49999999e-06,0x01,,,
"Async Serial","data",138.786915,9.50000001e-06,0x00,,,
"Async Serial","data",138.786925,9.49999999e-06,0x00,,,
"Async Serial","data",138.786935,9.50000001e-06,0x00,,,
"Async Serial","data",138.786945,9.49999999e-06,0x00,,,
"Async Serial","data",138.786955,9.49999996e-06,0x00,,,
"Async Serial","data",138.786965,9.50000001e-06,0x00,,,
"Async Serial","data",138.786975,9.50000001e-06,0x00,,,
"Async Serial","data",138.786985,9.50000001e-06,0x00,,,
"Async Serial","data",138.786996,9.49999999e-06,0x00,,,
"Async Serial","data",138.787006,9.50000001e-06,0x00,,,
"Async Serial","data",138.787016,9.49999999e-06,0x00,,,
"Async Serial","data",138.787026,9.50000001e-06,0x00,,,
"Async Serial","data",138.787036,9.49999999e-06,0x09,,,
"Async Serial","data",138.787046,9.49999999e-06,0x8C,,,
"Async Serial","data",138.787056,9.50000001e-06,0x00,,,
"Async Serial","data",138.787066,9.50000001e-06,0x00,,,
"Async Serial","data",138.787076,9.50000001e-06,0x01,,,
"Async Serial","data",138.787087,9.49999999e-06,0x00,,,
"Async Serial","data",138.787097,9.50000001e-06,0x00,,,
"Async Serial","data",138.787107,9.49999999e-06,0x01,,,
"Async Serial","data",138.787117,9.50000001e-06,0xCC,,,
"Async Serial","data",138.787127,9.50000001e-06,0xB3,,,
"Async Serial [1]","data",138.787191,9.50000001e-06,0xB1,,,
"Async Serial [1]","data",138.787201,9.49999996e-06,0x02,,,
"Async Serial [1]","data",138.787211,9.49999996e-06,0x40,,,
"Async Serial [1]","data",138.787221,9.50000001e-06,0x01,,,
"Async Serial [1]","data",138.787231,9.50000001e-06,0x89,,,
"Async Serial [1]","data",138.787241,9.50000001e-06,0x34,,,
"Async Serial [1]","data",138.787251,9.49999999e-06,0xB3,,,
"Async Serial","data",138.787303,9.50000001e-06,0xB2,,,
"Async Serial","data",138.787313,9.49999999e-06,0x00,,,
"Async Serial","data",138.787323,9.50000001e-06,0x00,,,
"Async Serial","data",138.787333,9.49999996e-06,0x00,,,
"Async Serial","data",138.787343,9.50000001e-06,0xB3,,,
"Async Serial [1]","data",138.787393,9.50000001e-06,0xB1,,,
"Async Serial [1]","data",138.787403,9.49999999e-06,0x02,,,
"Async Serial [1]","data",138.787413,9.50000001e-06,0x41,,,
"Async Serial [1]","data",138.787423,9.49999999e-06,0x01,,,
"Async Serial [1]","data",138.787433,9.49999999e-06,0x8C,,,
"Async Serial [1]","data",138.787443,9.50000001e-06,0x30,,,
"Async Serial [1]","data",138.787453,9.50000001e-06,0xB3,,,
"Async Serial","data",138.787504,9.49999999e-06,0xB2,,,
"Async Serial","data",138.787514,9.50000001e-06,0x00,,,
"Async Serial","data",138.787524,9.49999999e-06,0x00,,,
"Async Serial","data",138.787534,9.50000001e-06,0x00,,,
"Async Serial","data",138.787544,9.49999999e-06,0xB3,,,
"Async Serial [1]","data",138.787595,9.50000001e-06,0xB1,,,
"Async Serial [1]","data",138.787605,9.50000001e-06,0x02,,,
"Async Serial [1]","data",138.787615,9.49999996e-06,0x43,,,
"Async Serial [1]","data",138.787625,9.49999996e-06,0x03,,,
"Async Serial [1]","data",138.787635,9.50000001e-06,0x00,,,
"Async Serial [1]","data",138.787645,9.50000001e-06,0x01,,,
"Async Serial [1]","data",138.787655,9.50000001e-06,0x00,,,
"Async Serial [1]","data",138.787665,9.49999999e-06,0xB7,,,
"Async Serial [1]","data",138.787675,9.50000001e-06,0xB3,,,
"Async Serial","data",138.787728,9.50000001e-06,0xB2,,,
"Async Serial","data",138.787738,9.49999999e-06,0x00,,,
"Async Serial","data",138.787748,9.49999999e-06,0x00,,,
"Async Serial","data",138.787758,9.49999999e-06,0x00,,,
"Async Serial","data",138.787769,9.50000001e-06,0xB3,,,
"Async Serial [1]","data",138.787799,9.50000001e-06,0xB1,,,
"Async Serial [1]","data",138.787809,9.50000001e-06,0x02,,,
"Async Serial [1]","data",138.787819,9.49999999e-06,0x48,,,
"Async Serial [1]","data",138.787829,9.50000001e-06,0x18,,,
"Async Serial [1]","data",138.787839,9.49999999e-06,0x00,,,
"Async Serial [1]","data",138.787849,9.50000001e-06,0x00,,,
"Async Serial [1]","data",138.787859,9.50000001e-06,0x00,,,
"Async Serial [1]","data",138.787869,9.49999999e-06,0x00,,,
"Async Serial [1]","data",138.787879,9.50000001e-06,0x07,,,
"Async Serial [1]","data",138.787889,9.50000001e-06,0xD3,,,
"Async Serial [1]","data",138.787899,9.50000001e-06,0xFF,,,
"Async Serial [1]","data",138.787909,9.50000001e-06,0xFF,,,
"Async Serial [1]","data",138.787919,9.50000001e-06,0x20,,,
"Async Serial [1]","data",138.787929,9.49999999e-06,0x4E,,,
"Async Serial [1]","data",138.787939,9.49999999e-06,0x00,,,
"Async Serial [1]","data",138.787949,9.49999999e-06,0x00,,,
"Async Serial [1]","data",138.787959,9.50000001e-06,0x00,,,
"Async Serial [1]","data",138.787969,9.50000001e-06,0x5A,,,
"Async Serial [1]","data",138.787979,9.49999999e-06,0x62,,,
"Async Serial [1]","data",138.787989,9.49999999e-06,0x02,,,
"Async Serial [1]","data",138.787999,9.50000001e-06,0x76,,,
"Async Serial [1]","data",138.788009,9.50000001e-06,0x01,,,
"Async Serial [1]","data",138.788019,9.50000001e-06,0x00,,,
"Async Serial [1]","data",138.788029,9.49999999e-06,0x00,,,
"Async Serial [1]","data",138.788039,9.49999999e-06,0x57,,,
"Async Serial [1]","data",138.788049,9.50000001e-06,0x13,,,
"Async Serial [1]","data",138.788059,9.50000001e-06,0x7E,,,
"Async Serial [1]","data",138.788069,9.50000001e-06,0x03,,,
"Async Serial [1]","data",138.788079,9.49999999e-06,0x38,,,
"Async Serial [1]","data",138.788089,9.50000001e-06,0xB3,,,
"Async Serial","data",138.78821,9.50000001e-06,0xB2,,,
"Async Serial","data",138.78822,9.49999999e-06,0x00,,,
"Async Serial","data",138.78823,9.49999999e-06,0x00,,,
"Async Serial","data",138.78824,9.50000001e-06,0x00,,,
"Async Serial","data",138.78825,9.49999999e-06,0xB3,,,
"Async Serial [1]","data",138.788306,9.49999999e-06,0xB1,,,
"Async Serial [1]","data",138.788316,9.50000001e-06,0x02,,,
"Async Serial [1]","data",138.788326,9.50000001e-06,0x40,,,
"Async Serial [1]","data",138.788336,9.49999999e-06,0x01,,,
"Async Serial [1]","data",138.788346,9.49999999e-06,0x09,,,
"Async Serial [1]","data",138.788356,9.50000001e-06,0xB4,,,
"Async Serial [1]","data",138.788366,9.50000001e-06,0xB3,,,
"Async Serial","data",138.788419,9.50000001e-06,0xB2,,,
"Async Serial","data",138.788429,9.49999999e-06,0x00,,,
"Async Serial","data",138.788439,9.50000001e-06,0x00,,,
"Async Serial","data",138.788449,9.50000001e-06,0x00,,,
"Async Serial","data",138.788459,9.49999999e-06,0xB3,,,
"Async Serial [1]","data",138.838477,9.50000001e-06,0xB1,,,
"Async Serial [1]","data",138.838487,9.50000001e-06,0x01,,,
"Async Serial [1]","data",138.838497,9.49999999e-06,0x02,,,
"Async Serial [1]","data",138.838507,9.49999999e-06,0x46,,,
"Async Serial [1]","data",138.838517,9.50000001e-06,0xB7,,,
"Async Serial [1]","data",138.838527,9.50000001e-06,0xB3,,,
"Async Serial","data",138.838783,9.50000001e-06,0xB2,,,
"Async Serial","data",138.838793,9.50000001e-06,0x00,,,
"Async Serial","data",138.838803,9.49999999e-06,0x46,,,
"Async Serial","data",138.838813,9.49999999e-06,0x09,,,
"Async Serial","data",138.838823,9.49999999e-06,0x00,,,
"Async Serial","data",138.838833,9.50000001e-06,0x28,,,
"Async Serial","data",138.838843,9.50000001e-06,0xEF,,,
"Async Serial","data",138.838853,9.50000001e-06,0x5B,,,
"Async Serial","data",138.838864,9.49999999e-06,0x00,,,
"Async Serial","data",138.838874,9.50000001e-06,0x03,,,
"Async Serial","data",138.838884,9.50000001e-06,0x00,,,
"Async Serial","data",138.838894,9.50000001e-06,0x00,,,
"Async Serial","data",138.838904,9.49999999e-06,0x00,,,
"Async Serial","data",138.838914,9.49999999e-06,0x40,,,
"Async Serial","data",138.838924,9.50000001e-06,0x0D,,,
"Async Serial","data",138.838934,9.49999999e-06,0x03,,,
"Async Serial","data",138.838944,9.50000001e-06,0x00,,,
"Async Serial","data",138.838955,9.49999999e-06,0x0A,,,
"Async Serial","data",138.838965,9.49999999e-06,0x00,,,
"Async Serial","data",138.838975,9.50000001e-06,0x01,,,
"Async Serial","data",138.838985,9.50000001e-06,0x00,,,
"Async Serial","data",138.838995,9.50000001e-06,0x80,,,
"Async Serial","data",138.839005,9.49999999e-06,0x8D,,,
"Async Serial","data",138.839015,9.50000001e-06,0x5B,,,
"Async Serial","data",138.839025,9.49999999e-06,0x00,,,
"Async Serial","data",138.839035,9.50000001e-06,0x20,,,
"Async Serial","data",138.839045,9.49999999e-06,0xBF,,,
"Async Serial","data",138.839056,9.49999999e-06,0x02,,,
"Async Serial","data",138.839066,9.49999999e-06,0x00,,,
"Async Serial","data",138.839076,9.50000001e-06,0x00,,,
"Async Serial","data",138.839086,9.50000001e-06,0x12,,,
"Async Serial","data",138.839096,9.49999996e-06,0x7A,,,
"Async Serial","data",138.839106,9.50000001e-06,0x00,,,
"Async Serial","data",138.839116,9.49999999e-06,0x60,,,
"Async Serial","data",138.839126,9.49999999e-06,0xE3,,,
"Async Serial","data",138.839136,9.49999999e-06,0x16,,,
"Async Serial","data",138.839146,9.50000001e-06,0x00,,,
"Async Serial","data",138.839157,9.50000001e-06,0x30,,,
"Async Serial","data",138.839167,9.50000001e-06,0x11,,,
"Async Serial","data",138.839177,9.50000001e-06,0x00,,,
"Async Serial","data",138.839187,9.49999999e-06,0x00,,,
"Async Serial","data",138.839197,9.50000001e-06,0xD0,,,
"Async Serial","data",138.839207,9.49999999e-06,0xEE,,,
"Async Serial","data",138.839217,9.50000001e-06,0xFF,,,
"Async Serial","data",138.839227,9.49999999e-06,0xFF,,,
"Async Serial","data",138.839237,9.50000001e-06,0x20,,,
"Async Serial","data",138.839248,9.50000001e-06,0x03,,,
"Async Serial","data",138.839258,9.50000001e-06,0xD0,,,
"Async Serial","data",138.839268,9.50000001e-06,0x07,,,
"Async Serial","data",138.839278,9.49999999e-06,0x64,,,
"Async Serial","data",138.839288,9.49999999e-06,0x00,,,
"Async Serial","data",138.839298,9.49999999e-06,0xF4,,,
"Async Serial","data",138.839308,9.50000001e-06,0x01,,,
"Async Serial","data",138.839318,9.50000001e-06,0x00,,,
"Async Serial","data",138.839328,9.50000001e-06,0x00,,,
"Async Serial","data",138.839338,9.50000001e-06,0x00,,,
"Async Serial","data",138.839349,9.49999999e-06,0x00,,,
"Async Serial","data",138.839359,9.50000001e-06,0x00,,,
"Async Serial","data",138.839369,9.49999999e-06,0x00,,,
"Async Serial","data",138.839379,9.50000001e-06,0x00,,,
"Async Serial","data",138.839389,9.49999996e-06,0x00,,,
"Async Serial","data",138.839399,9.50000001e-06,0x00,,,
"Async Serial","data",138.839409,9.49999999e-06,0x00,,,
"Async Serial","data",138.839419,9.49999999e-06,0x00,,,
"Async Serial","data",138.839429,9.50000001e-06,0x00,,,
"Async Serial","data",138.83944,9.50000001e-06,0x09,,,
"Async Serial","data",138.83945,9.50000001e-06,0x8C,,,
"Async Serial","data",138.83946,9.49999999e-06,0x00,,,
"Async Serial","data",138.83947,9.50000001e-06,0x00,,,
"Async Serial","data",138.83948,9.49999999e-06,0x01,,,
"Async Serial","data",138.83949,9.50000001e-06,0x00,,,
"Async Serial","data",138.8395,9.49999999e-06,0x00,,,
"Async Serial","data",138.83951,9.50000001e-06,0x01,,,
"Async Serial","data",138.83952,9.50000001e-06,0xCC,,,
"Async Serial","data",138.83953,9.50000001e-06,0xB3,,,
"Async Serial [1]","data",138.839591,9.50000001e-06,0xB1,,,
"Async Serial [1]","data",138.839601,9.50000001e-06,0x02,,,
"Async Serial [1]","data",138.839611,9.50000001e-06,0x40,,,
"Async Serial [1]","data",138.839621,9.49999999e-06,0x01,,,
"Async Serial [1]","data",138.839631,9.49999999e-06,0x89,,,
"Async Serial [1]","data",138.839641,9.49999999e-06,0x34,,,
"Async Serial [1]","data",138.839651,9.50000001e-06,0xB3,,,
"Async Serial","data",138.839699,9.49999999e-06,0xB2,,,
"Async Serial","data",138.839709,9.50000001e-06,0x00,,,
"Async Serial","data",138.839719,9.50000001e-06,0x00,,,
"Async Serial","data",138.83973,9.50000001e-06,0x00,,,
"Async Serial","data",138.83974,9.50000001e-06,0xB3,,,
"Async Serial [1]","data",138.839793,9.49999999e-06,0xB1,,,
"Async Serial [1]","data",138.839803,9.50000001e-06,0x02,,,
"Async Serial [1]","data",138.839813,9.50000001e-06,0x41,,,
"Async Serial [1]","data",138.839823,9.50000001e-06,0x01,,,
"Async Serial [1]","data",138.839833,9.49999999e-06,0x8C,,,
"Async Serial [1]","data",138.839843,9.49999999e-06,0x30,,,
"Async Serial [1]","data",138.839853,9.50000001e-06,0xB3,,,
"Async Serial","data",138.839901,9.50000001e-06,0xB2,,,
"Async Serial","data",138.839911,9.50000001e-06,0x00,,,
"Async Serial","data",138.839922,9.50000001e-06,0x00,,,
"Async Serial","data",138.839932,9.49999999e-06,0x00,,,
"Async Serial","data",138.839942,9.50000001e-06,0xB3,,,
"Async Serial [1]","data",138.839995,9.50000001e-06,0xB1,,,
"Async Serial [1]","data",138.840005,9.50000001e-06,0x02,,,
"Async Serial [1]","data",138.840015,9.50000001e-06,0x43,,,
"Async Serial [1]","data",138.840025,9.49999999e-06,0x03,,,
"Async Serial [1]","data",138.840035,9.49999999e-06,0x00,,,
"Async Serial [1]","data",138.840045,9.50000001e-06,0x01,,,
"Async Serial [1]","data",138.840055,9.49999999e-06,0x00,,,
"Async Serial [1]","data",138.840065,9.50000001e-06,0xB7,,,
"Async Serial [1]","data",138.840075,9.49999999e-06,0xB3,,,
"Async Serial","data",138.840134,9.50000001e-06,0xB2,,,
"Async Serial","data",138.840144,9.50000001e-06,0x00,,,
"Async Serial","data",138.840154,9.49999999e-06,0x00,,,
"Async Serial","data",138.840164,9.50000001e-06,0x00,,,
"Async Serial","data",138.840174,9.50000001e-06,0xB3,,,
"Async Serial [1]","data",138.840199,9.50000001e-06,0xB1,,,
"Async Serial [1]","data",138.840209,9.50000001e-06,0x02,,,
"Async Serial [1]","data",138.840219,9.50000001e-06,0x48,,,
"Async Serial [1]","data",138.840229,9.49999999e-06,0x18,,,
"Async Serial [1]","data",138.840239,9.49999999e-06,0x00,,,
"Async Serial [1]","data",138.840249,9.50000001e-06,0x00,,,
"Async Serial [1]","data",138.840259,9.50000001e-06,0x00,,,
"Async Serial [1]","data",138.840269,9.49999999e-06,0x00,,,
"Async Serial [1]","data",138.840279,9.49999999e-06,0x73,,,
"Async Serial [1]","data",138.840289,9.49999999e-06,0xF7,,,
"Async Serial [1]","data",138.840299,9.50000001e-06,0xFF,,,
"Async Serial [1]","data",138.840309,9.50000001e-06,0xFF,,,
"Async Serial [1]","data",138.840319,9.50000001e-06,0x20,,,
"Async Serial [1]","data",138.840329,9.50000001e-06,0x4E,,,
"Async Serial [1]","data",138.840339,9.50000001e-06,0x00,,,
"Async Serial [1]","data",138.84035,9.49999999e-06,0x00,,,
"Async Serial [1]","data",138.84036,9.50000001e-06,0x00,,,
"Async Serial [1]","data",138.84037,9.50000001e-06,0x5A,,,
"Async Serial [1]","data",138.84038,9.49999999e-06,0x62,,,
"Async Serial [1]","data",138.840389,9.50000001e-06,0x02,,,
"Async Serial [1]","data",138.840399,9.49999999e-06,0x77,,,
"Async Serial [1]","data",138.840409,9.50000001e-06,0x01,,,
"Async Serial [1]","data",138.840419,9.50000001e-06,0x00,,,
"Async Serial [1]","data",138.840429,9.50000001e-06,0x00,,,
"Async Serial [1]","data",138.84044,9.49999999e-06,0x57,,,
"Async Serial [1]","data",138.84045,9.49999999e-06,0x13,,,
"Async Serial [1]","data",138.84046,9.50000001e-06,0x7E,,,
"Async Serial [1]","data",138.84047,9.49999999e-06,0x03,,,
"Async Serial [1]","data",138.840479,9.50000001e-06,0xA7,,,
"Async Serial [1]","data",138.840489,9.49999999e-06,0xB3,,,
"Async Serial","data",138.840602,9.49999999e-06,0xB2,,,
"Async Serial","data",138.840612,9.50000001e-06,0x00,,,
"Async Serial","data",138.840622,9.50000001e-06,0x00,,,
"Async Serial","data",138.840632,9.49999996e-06,0x00,,,
"Async Serial","data",138.840642,9.49999999e-06,0xB3,,,
"Async Serial [1]","data",138.840707,9.49999999e-06,0xB1,,,
"Async Serial [1]","data",138.840717,9.49999999e-06,0x02,,,
"Async Serial [1]","data",138.840727,9.50000001e-06,0x40,,,
"Async Serial [1]","data",138.840737,9.49999999e-06,0x01,,,
"Async Serial [1]","data",138.840747,9.50000001e-06,0x09,,,
"Async Serial [1]","data",138.840757,9.49999999e-06,0xB4,,,
"Async Serial [1]","data",138.840767,9.50000001e-06,0xB3,,,
"Async Serial","data",138.840817,9.49999999e-06,0xB2,,,
"Async Serial","data",138.840827,9.50000001e-06,0x00,,,
"Async Serial","data",138.840837,9.50000001e-06,0x00,,,
"Async Serial","data",138.840847,9.50000001e-06,0x00,,,
"Async Serial","data",138.840857,9.49999999e-06,0xB3,,,
"Async Serial [1]","data",138.890877,9.49999999e-06,0xB1,,,
"Async Serial [1]","data",138.890887,9.49999999e-06,0x01,,,
"Async Serial [1]","data",138.890897,9.49999999e-06,0x02,,,
"Async Serial [1]","data",138.890907,9.49999999e-06,0x46,,,
"Async Serial [1]","data",138.890917,9.50000001e-06,0xB7,,,
"Async Serial [1]","data",138.890927,9.50000001e-06,0xB3,,,
"Async Serial","data",138.891164,9.50000001e-06,0xB2,,,
"Async Serial","data",138.891174,9.49999999e-06,0x00,,,
"Async Serial","data",138.891185,9.50000001e-06,0x46,,,
"Async Serial","data",138.891195,9.50000001e-06,0x09,,,
"Async Serial","data",138.891205,9.50000001e-06,0x00,,,
"Async Serial","data",138.89122,9.50000001e-06,0x28,,,
"Async Serial","data",138.89123,9.49999999e-06,0xEF,,,
"Async Serial","data",138.89124,9.50000001e-06,0x5B,,,
"Async Serial","data",138.89125,9.50000001e-06,0x00,,,
"Async Serial","data",138.89126,9.49999999e-06,0x03,,,
"Async Serial","data",138.89127,9.50000001e-06,0x00,,,
"Async Serial","data",138.89128,9.49999999e-06,0x00,,,
"Async Serial","data",138.891291,9.50000001e-06,0x00,,,
"Async Serial","data",138.891301,9.49999999e-06,0x40,,,
"Async Serial","data",138.891311,9.50000001e-06,0x0D,,,
"Async Serial","data",138.891321,9.49999999e-06,0x03,,,
"Async Serial","data",138.891331,9.50000001e-06,0x00,,,
"Async Serial","data",138.891341,9.50000001e-06,0x0A,,,
"Async Serial","data",138.891351,9.50000001e-06,0x00,,,
"Async Serial","data",138.891361,9.50000001e-06,0x01,,,
"Async Serial","data",138.891371,9.49999999e-06,0x00,,,
"Async Serial","data",138.891381,9.50000001e-06,0x80,,,
"Async Serial","data",138.891392,9.49999996e-06,0x8D,,,
"Async Serial","data",138.891402,9.50000001e-06,0x5B,,,
"Async Serial","data",138.891412,9.49999999e-06,0x00,,,
"Async Serial","data",138.891422,9.49999999e-06,0x20,,,
"Async Serial","data",138.891432,9.50000001e-06,0xBF,,,
"Async Serial","data",138.891442,9.50000001e-06,0x02,,,
"Async Serial","data",138.891452,9.50000001e-06,0x00,,,
"Async Serial","data",138.891462,9.49999996e-06,0x00,,,
"Async Serial","data",138.891472,9.50000001e-06,0x12,,,
"Async Serial","data",138.891483,9.49999999e-06,0x7A,,,
"Async Serial","data",138.891493,9.49999999e-06,0x00,,,
"Async Serial","data",138.891503,9.49999999e-06,0x60,,,
"Async Serial","data",138.891513,9.50000001e-06,0xE3,,,
"Async Serial","data",138.891523,9.49999999e-06,0x16,,,
"Async Serial","data",138.891533,9.50000001e-06,0x00,,,
"Async Serial","data",138.891543,9.50000001e-06,0x30,,,
"Async Serial","data",138.891553,9.49999999e-06,0x11,,,
"Async Serial","data",138.891563,9.50000001e-06,0x00,,,
"Async Serial","data",138.891573,9.49999999e-06,0x00,,,
"Async Serial","data",138.891584,9.50000001e-06,0xD0,,,
"Async Serial","data",138.891594,9.49999999e-06,0xEE,,,
"Async Serial","data",138.891604,9.50000001e-06,0xFF,,,
"Async Serial","data",138.891614,9.50000001e-06,0xFF,,,
"Async Serial","data",138.891624,9.50000001e-06,0x20,,,
"Async Serial","data",138.891634,9.50000001e-06,0x03,,,
"Async Serial","data",138.891644,9.49999999e-06,0xD0,,,
"Async Serial","data",138.891654,9.50000001e-06,0x07,,,
"Async Serial","data",138.891664,9.49999999e-06,0x64,,,
"Async Serial","data",138.891674,9.50000001e-06,0x00,,,
"Async Serial","data",138.891685,9.49999996e-06,0xF4,,,
"Async Serial","data",138.891695,9.50000001e-06,0x01,,,
"Async Serial","data",138.891705,9.50000001e-06,0x00,,,
"Async Serial","data",138.891715,9.49999999e-06,0x00,,,
"Async Serial","data",138.891725,9.50000001e-06,0x00,,,
"Async Serial","data",138.891735,9.49999999e-06,0x00,,,
"Async Serial","data",138.891745,9.49999999e-06,0x00,,,
"Async Serial","data",138.891755,9.49999999e-06,0x00,,,
"Async Serial","data",138.891765,9.50000001e-06,0x00,,,
"Async Serial","data",138.891776,9.49999999e-06,0x00,,,
"Async Serial","data",138.891786,9.50000001e-06,0x00,,,
"Async Serial","data",138.891796,9.50000001e-06,0x00,,,
"Async Serial","data",138.891806,9.50000001e-06,0x00,,,
"Async Serial","data",138.891816,9.50000001e-06,0x00,,,
"Async Serial","data",138.891826,9.49999999e-06,0x09,,,
"Async Serial","data",138.891836,9.50000001e-06,0x8C,,,
"Async Serial","data",138.891846,9.49999999e-06,0x00,,,
"Async Serial","data",138.891856,9.50000001e-06,0x00,,,
"Async Serial","data",138.891866,9.49999999e-06,0x01,,,
"Async Serial","data",138.891877,9.50000001e-06,0x00,,,
"Async Serial","data",138.891887,9.50000001e-06,0x00,,,
"Async Serial","data",138.891897,9.50000001e-06,0x01,,,
"Async Serial","data",138.891907,9.49999999e-06,0xCC,,,
"Async Serial","data",138.891917,9.49999999e-06,0xB3,,,
"Async Serial [1]","data",138.891992,9.49999999e-06,0xB1,,,
"Async Serial [1]","data",138.892002,9.50000001e-06,0x02,,,
"Async Serial [1]","data",138.892012,9.50000001e-06,0x40,,,
"Async Serial [1]","data",138.892022,9.50000001e-06,0x01,,,
"Async Serial [1]","data",138.892032,9.49999999e-06,0x89,,,
"Async Serial [1]","data",138.892042,9.49999999e-06,0x34,,,
"Async Serial [1]","data",138.892052,9.50000001e-06,0xB3,,,
"Async Serial","data",138.8921,9.49999999e-06,0xB2,,,
"Async Serial","data",138.89211,9.49999999e-06,0x00,,,
"Async Serial","data",138.89212,9.50000001e-06,0x00,,,
"Async Serial","data",138.89213,9.50000001e-06,0x00,,,
"Async Serial","data",138.89214,9.50000001e-06,0xB3,,,
"Async Serial [1]","data",138.892194,9.50000001e-06,0xB1,,,
"Async Serial [1]","data",138.892204,9.49999999e-06,0x02,,,
"Async Serial [1]","data",138.892214,9.49999999e-06,0x41,,,
"Async Serial [1]","data",138.892224,9.50000001e-06,0x01,,,
"Async Serial [1]","data",138.892234,9.50000001e-06,0x8C,,,
"Async Serial [1]","data",138.892244,9.50000001e-06,0x30,,,
"Async Serial [1]","data",138.892254,9.49999999e-06,0xB3,,,
"Async Serial","data",138.892301,9.50000001e-06,0xB2,,,
"Async Serial","data",138.892311,9.50000001e-06,0x00,,,
"Async Serial","data",138.892321,9.49999999e-06,0x00,,,
"Async Serial","data",138.892331,9.50000001e-06,0x00,,,
"Async Serial","data",138.892341,9.50000001e-06,0xB3,,,
"Async Serial [1]","data",138.892396,9.49999996e-06,0xB1,,,
"Async Serial [1]","data",138.892406,9.49999999e-06,0x02,,,
"Async Serial [1]","data",138.892416,9.50000001e-06,0x43,,,
"Async Serial [1]","data",138.892426,9.50000001e-06,0x03,,,
"Async Serial [1]","data",138.892436,9.50000001e-06,0x00,,,
"Async Serial [1]","data",138.892446,9.49999999e-06,0x01,,,
"Async Serial [1]","data",138.892456,9.49999999e-06,0x00,,,
"Async Serial [1]","data",138.892466,9.50000001e-06,0xB7,,,
"Async Serial [1]","data",138.892476,9.50000001e-06,0xB3,,,
"Async Serial","data",138.892533,9.49999999e-06,0xB2,,,
"Async Serial","data",138.892543,9.50000001e-06,0x00,,,
"Async Serial","data",138.892554,9.49999996e-06,0x00,,,
"Async Serial","data",138.892564,9.50000001e-06,0x00,,,
"Async Serial","data",138.892574,9.49999999e-06,0xB3,,,
"Async Serial [1]","data",138.8926,9.49999999e-06,0xB1,,,
"Async Serial [1]","data",138.89261,9.49999996e-06,0x02,,,
"Async Serial [1]","data",138.89262,9.50000001e-06,0x48,,,
"Async Serial [1]","data",138.89263,9.50000001e-06,0x18,,,
"Async Serial [1]","data",138.89264,9.50000001e-06,0x00,,,
"Async Serial [1]","data",138.89265,9.49999999e-06,0x00,,,
"Async Serial [1]","data",138.89266,9.50000001e-06,0x00,,,
"Async Serial [1]","data",138.89267,9.50000001e-06,0x00,,,
"Async Serial [1]","data",138.89268,9.50000001e-06,0xF4,,,
"Async Serial [1]","data",138.89269,9.50000001e-06,0xFD,,,
"Async Serial [1]","data",138.8927,9.49999996e-06,0xFF,,,
"Async Serial [1]","data",138.89271,9.50000001e-06,0xFF,,,
"Async Serial [1]","data",138.89272,9.50000001e-06,0x20,,,
"Async Serial [1]","data",138.89273,9.50000001e-06,0x4E,,,
"Async Serial [1]","data",138.89274,9.50000001e-06,0x00,,,
"Async Serial [1]","data",138.89275,9.50000001e-06,0x00,,,
"Async Serial [1]","data",138.89276,9.49999999e-06,0x00,,,
"Async Serial [1]","data",138.89277,9.49999999e-06,0x5A,,,
"Async Serial [1]","data",138.89278,9.50000001e-06,0x62,,,
"Async Serial [1]","data",138.89279,9.50000001e-06,0x02,,,
"Async Serial [1]","data",138.8928,9.50000001e-06,0x77,,,
"Async Serial [1]","data",138.89281,9.49999996e-06,0x01,,,
"Async Serial [1]","data",138.89282,9.49999999e-06,0x00,,,
"Async Serial [1]","data",138.89283,9.50000001e-06,0x00,,,
"Async Serial [1]","data",138.89284,9.50000001e-06,0x57,,,
"Async Serial [1]","data",138.89285,9.50000001e-06,0x13,,,
"Async Serial [1]","data",138.89286,9.49999999e-06,0x7E,,,
"Async Serial [1]","data",138.89287,9.49999999e-06,0x03,,,
"Async Serial [1]","data",138.89288,9.50000001e-06,0x20,,,
"Async Serial [1]","data",138.89289,9.50000001e-06,0xB3,,,
"Async Serial","data",138.893001,9.49999999e-06,0xB2,,,
"Async Serial","data",138.893011,9.50000001e-06,0x00,,,
"Async Serial","data",138.893021,9.49999999e-06,0x00,,,
"Async Serial","data",138.893031,9.50000001e-06,0x00,,,
"Async Serial","data",138.893042,9.49999999e-06,0xB3,,,
"Async Serial [1]","data",138.893107,9.49999999e-06,0xB1,,,
"Async Serial [1]","data",138.893117,9.50000001e-06,0x02,,,
"Async Serial [1]","data",138.893127,9.49999999e-06,0x40,,,
"Async Serial [1]","data",138.893137,9.50000001e-06,0x01,,,
"Async Serial [1]","data",138.893147,9.50000001e-06,0x09,,,
"Async Serial [1]","data",138.893157,9.50000001e-06,0xB4,,,
"Async Serial [1]","data",138.893167,9.49999996e-06,0xB3,,,
"Async Serial","data",138.893217,9.49999996e-06,0xB2,,,
"Async Serial","data",138.893227,9.50000001e-06,0x00,,,
"Async Serial","data",138.893241,9.49999996e-06,0x00,,,
"Async Serial","data",138.893251,9.50000001e-06,0x00,,,
"Async Serial","data",138.893261,9.50000001e-06,0xB3,,,
"I2C","start",138.904732,6.24999811e-08,,,,
"I2C","address",138.904735,2.31875e-05,,true,0x25,false
"I2C","stop",138.904765,6.25000102e-08,,,,
"I2C","start",138.90477,6.25000102e-08,,,,
"I2C","address",138.904773,2.325e-05,,true,0x25,false
"I2C","data",138.904801,2.325e-05,0x00,true,,
"I2C","start",138.90483,6.24999811e-08,,,,
"I2C","address",138.904833,2.325e-05,,true,0x25,true
"I2C","data",138.904866,2.31875e-05,0xA5,true,,
"I2C","data",138.904891,2.325e-05,0x03,false,,
"I2C","stop",138.904917,6.25000102e-08,,,,
"I2C","start",138.904923,6.24999811e-08,,,,
"I2C","address",138.904926,2.325e-05,,true,0x25,false
"I2C","data",138.904954,2.31875e-05,0x40,true,,
"I2C","start",138.904983,6.24999811e-08,,,,
"I2C","address",138.904986,2.325e-05,,true,0x25,true
"I2C","data",138.905019,2.31875e-05,0x09,false,,
"I2C","stop",138.905045,6.25000102e-08,,,,
"I2C","start",138.90505,6.25000393e-08,,,,
"I2C","address",138.905053,2.325e-05,,true,0x25,false
"I2C","data",138.905082,2.31875e-05,0x00,true,,
"I2C","start",138.905111,6.25000102e-08,,,,
"I2C","address",138.905113,2.325e-05,,true,0x25,true
"I2C","data",138.905147,2.31875e-05,0xA5,true,,
"I2C","data",138.905171,2.325e-05,0x03,true,,
"I2C","data",138.905196,2.325e-05,0x09,true,,
"I2C","data",138.905221,2.325e-05,0x00,true,,
"I2C","data",138.905246,2.325e-05,0x28,true,,
"I2C","data",138.90527,2.325e-05,0xEF,true,,
"I2C","data",138.905295,2.325e-05,0x5B,true,,
"I2C","data",138.90532,2.325e-05,0x00,true,,
"I2C","data",138.905344,2.325e-05,0x03,true,,
"I2C","data",138.905369,2.325e-05,0x00,true,,
"I2C","data",138.905394,2.325e-05,0x00,true,,
"I2C","data",138.905419,2.325e-05,0x00,true,,
"I2C","data",138.905443,2.325e-05,0x40,true,,
"I2C","data",138.905468,2.325e-05,0x0D,true,,
"I2C","data",138.905493,2.325e-05,0x03,true,,
"I2C","data",138.905518,2.325e-05,0x00,true,,
"I2C","data",138.905542,2.325e-05,0x0A,true,,
"I2C","data",138.905567,2.325e-05,0x00,true,,
"I2C","data",138.905592,2.325e-05,0x01,true,,
"I2C","data",138.905617,2.325e-05,0x00,true,,
"I2C","data",138.905641,2.325e-05,0x80,true,,
"I2C","data",138.905666,2.325e-05,0x8D,true,,
"I2C","data",138.905691,2.325e-05,0x5B,true,,
"I2C","data",138.905715,2.31875e-05,0x00,true,,
"I2C","data",138.90574,2.325e-05,0x20,true,,
"I2C","data",138.905765,2.325e-05,0xBF,true,,
"I2C","data",138.90579,2.31875e-05,0x02,true,,
"I2C","data",138.905814,2.325e-05,0x00,true,,
"I2C","data",138.905839,2.325e-05,0x00,true,,
"I2C","data",138.905864,2.31875e-05,0x12,true,,
"I2C","data",138.905889,2.325e-05,0x7A,true,,
"I2C","data",138.905913,2.325e-05,0x00,true,,
"I2C","data",138.905938,2.325e-05,0x60,true,,
"I2C","data",138.905963,2.325e-05,0xE3,true,,
"I2C","data",138.905987,2.325e-05,0x16,true,,
"I2C","data",138.906012,2.325e-05,0x00,true,,
"I2C","data",138.906037,2.325e-05,0x30,true,,
"I2C","data",138.906062,2.325e-05,0x11,true,,
"I2C","data",138.906086,2.325e-05,0x00,true,,
"I2C","data",138.906111,2.325e-05,0x00,true,,
"I2C","data",138.906136,2.325e-05,0xD0,true,,
"I2C","data",138.906161,2.325e-05,0xEE,true,,
"I2C","data",138.906185,2.325e-05,0xFF,true,,
"I2C","data",138.90621,2.325e-05,0xFF,true,,
"I2C","data",138.906235,2.325e-05,0x20,true,,
"I2C","data",138.906259,2.325e-05,0x03,true,,
"I2C","data",138.906284,2.325e-05,0xD0,true,,
"I2C","data",138.906309,2.325e-05,0x07,true,,
"I2C","data",138.906334,2.325e-05,0x64,true,,
"I2C","data",138.906358,2.325e-05,0x00,true,,
"I2C","data",138.906383,2.325e-05,0xF4,true,,
"I2C","data",138.906408,2.325e-05,0x01,true,,
"I2C","data",138.906433,2.325e-05,0x00,true,,
"I2C","data",138.906457,2.325e-05,0x00,true,,
"I2C","data",138.906482,2.325e-05,0x00,true,,
"I2C","data",138.906507,2.325e-05,0x00,true,,
"I2C","data",138.906531,2.325e-05,0x00,true,,
"I2C","data",138.906556,2.325e-05,0x00,true,,
"I2C","data",138.906581,2.325e-05,0x00,true,,
"I2C","data",138.906606,2.325e-05,0x00,true,,
"I2C","data",138.90663,2.325e-05,0x00,true,,
"I2C","data",138.906655,2.325e-05,0x00,true,,
"I2C","data",138.90668,2.325e-05,0x00,true,,
"I2C","data",138.906705,2.325e-05,0x00,true,,
"I2C","data",138.906729,2.325e-05,0x09,true,,
"I2C","data",138.906754,2.33125e-05,0x8C,true,,
"I2C","data",138.906779,2.325e-05,0x00,true,,
"I2C","data",138.906803,2.325e-05,0x00,true,,
"I2C","data",138.906828,2.31875e-05,0x01,true,,
"I2C","data",138.906853,2.325e-05,0x00,true,,
"I2C","data",138.906878,2.325e-05,0x00,true,,
"I2C","data",138.906902,2.325e-05,0x01,true,,
"I2C","data",138.906927,2.325e-05,0x00,true,,
"I2C","data",138.906952,2.325e-05,0x00,true,,
"I2C","data",138.906977,2.325e-05,0x00,true,,
"I2C","data",138.907001,2.325e-05,0x00,true,,
"I2C","data",138.907026,2.325e-05,0xF4,true,,
"I2C","data",138.907051,2.325e-05,0xFD,true,,
"I2C","data",138.907075,2.325e-05,0xFF,true,,
"I2C","data",138.9071,2.325e-05,0xFF,true,,
"I2C","data",138.907125,2.325e-05,0x20,true,,
"I2C","data",138.90715,2.325e-05,0x4E,true,,
"I2C","data",138.907174,2.325e-05,0x00,true,,
"I2C","data",138.907199,2.325e-05,0x00,true,,
"I2C","data",138.907224,2.325e-05,0x00,true,,
"I2C","data",138.907249,2.325e-05,0x5A,true,,
"I2C","data",138.907273,2.325e-05,0x62,true,,
"I2C","data",138.907298,2.31875e-05,0x02,true,,
"I2C","data",138.907323,2.325e-05,0x77,true,,
"I2C","data",138.907347,2.325e-05,0x01,true,,
"I2C","data",138.907372,2.31875e-05,0x00,true,,
"I2C","data",138.907397,2.325e-05,0x00,true,,
"I2C","data",138.907422,2.325e-05,0x57,true,,
"I2C","data",138.907446,2.325e-05,0x13,true,,
"I2C","data",138.907471,2.325e-05,0x7E,true,,
"I2C","data",138.907496,2.325e-05,0x03,false,,
"I2C","stop",138.907522,6.25000102e-08,,,,
"I2C","start",138.907527,6.24999811e-08,,,,
"I2C","address",138.90753,2.325e-05,,true,0x25,false
"I2C","data",138.907559,2.325e-05,0x40,true,,
"I2C","start",138.907587,6.24999811e-08,,,,
"I2C","address",138.90759,2.325e-05,,true,0x25,true
"I2C","data",138.907623,2.325e-05,0x09,false,,
"I2C","stop",138.90765,6.25000393e-08,,,,
"Async Serial [1]","data",138.943277,9.49999999e-06,0xB1,,,
"Async Serial [1]","data",138.943287,9.50000001e-06,0x01,,,
"Async Serial [1]","data",138.943297,9.50000001e-06,0x02,,,
"Async Serial [1]","data",138.943307,9.49999999e-06,0x46,,,
"Async Serial [1]","data",138.943317,9.49999996e-06,0xB7,,,
"Async Serial [1]","data",138.943327,9.50000001e-06,0xB3,,,
"Async Serial","data",138.943567,9.49999999e-06,0xB2,,,
"Async Serial","data",138.943577,9.50000001e-06,0x00,,,
"Async Serial","data",138.943587,9.50000001e-06,0x46,,,
"Async Serial","data",138.943597,9.50000001e-06,0x09,,,
"Async Serial","data",138.943607,9.50000001e-06,0x00,,,
"Async Serial","data",138.943617,9.49999999e-06,0x28,,,
"Async Serial","data",138.943627,9.50000001e-06,0xEF,,,
"Async Serial","data",138.943637,9.50000001e-06,0x5B,,,
"Async Serial","data",138.943647,9.50000001e-06,0x00,,,
"Async Serial","data",138.943657,9.49999999e-06,0x03,,,
"Async Serial","data",138.943668,9.49999999e-06,0x00,,,
"Async Serial","data",138.943678,9.50000001e-06,0x00,,,
"Async Serial","data",138.943688,9.50000001e-06,0x00,,,
"Async Serial","data",138.943698,9.50000001e-06,0x40,,,
"Async Serial","data",138.943708,9.49999999e-06,0x0D,,,
"Async Serial","data",138.943718,9.49999999e-06,0x03,,,
"Async Serial","data",138.943728,9.50000001e-06,0x00,,,
"Async Serial","data",138.943738,9.50000001e-06,0x0A,,,
"Async Serial","data",138.943748,9.49999996e-06,0x00,,,
"Async Serial","data",138.943758,9.49999999e-06,0x01,,,
"Async Serial","data",138.943769,9.50000001e-06,0x00,,,
"Async Serial","data",138.943779,9.49999999e-06,0x80,,,
"Async Serial","data",138.943789,9.49999999e-06,0x8D,,,
"Async Serial","data",138.943799,9.49999999e-06,0x5B,,,
"Async Serial","data",138.943809,9.50000001e-06,0x00,,,
"Async Serial","data",138.943819,9.49999999e-06,0x20,,,
"Async Serial","data",138.943829,9.50000001e-06,0xBF,,,
"Async Serial","data",138.943839,9.50000001e-06,0x02,,,
"Async Serial","data",138.943849,9.49999996e-06,0x00,,,
"Async Serial","data",138.94386,9.50000001e-06,0x00,,,
"Async Serial","data",138.94387,9.49999999e-06,0x12,,,
"Async Serial","data",138.94388,9.50000001e-06,0x7A,,,
"Async Serial","data",138.94389,9.49999999e-06,0x00,,,
"Async Serial","data",138.9439,9.50000001e-06,0x60,,,
"Async Serial","data",138.94391,9.50000001e-06,0xE3,,,
"Async Serial","data",138.94392,9.49999996e-06,0x16,,,
"Async Serial","data",138.94393,9.50000001e-06,0x00,,,
"Async Serial","data",138.94394,9.49999999e-06,0x30,,,
"Async Serial","data",138.94395,9.50000001e-06,0x11,,,
"Async Serial","data",138.943961,9.49999999e-06,0x00,,,
"Async Serial","data",138.943971,9.50000001e-06,0x00,,,
"Async Serial","data",138.943981,9.50000001e-06,0xD0,,,
"Async Serial","data",138.943991,9.50000001e-06,0xEE,,,
"Async Serial","data",138.944001,9.50000001e-06,0xFF,,,
"Async Serial","data",138.944011,9.49999999e-06,0xFF,,,
"Async Serial","data",138.944021,9.50000001e-06,0x20,,,
"Async Serial","data",138.944031,9.49999999e-06,0x03,,,
"Async Serial","data",138.944041,9.50000001e-06,0xD0,,,
"Async Serial","data",138.944051,9.49999999e-06,0x07,,,
"Async Serial","data",138.944062,9.50000001e-06,0x64,,,
"Async Serial","data",138.944072,9.50000001e-06,0x00,,,
"Async Serial","data",138.944082,9.50000001e-06,0xF4,,,
"Async Serial","data",138.944092,9.50000001e-06,0x01,,,
"Async Serial","data",138.944102,9.49999999e-06,0x00,,,
"Async Serial","data",138.944112,9.49999999e-06,0x00,,,
"Async Serial","data",138.944122,9.49999999e-06,0x00,,,
"Async Serial","data",138.944132,9.50000001e-06,0x00,,,
"Async Serial","data",138.944142,9.49999996e-06,0x00,,,
"Async Serial","data",138.944153,9.50000001e-06,0x00,,,
"Async Serial","data",138.944163,9.50000001e-06,0x00,,,
"Async Serial","data",138.944173,9.50000001e-06,0x00,,,
"Async Serial","data",138.944183,9.50000001e-06,0x00,,,
"Async Serial","data",138.944193,9.49999999e-06,0x00,,,
"Async Serial","data",138.944203,9.50000001e-06,0x00,,,
"Async Serial","data",138.944213,9.49999999e-06,0x00,,,
"Async Serial","data",138.944223,9.50000001e-06,0x09,,,
"Async Serial","data",138.944233,9.49999999e-06,0x8C,,,
"Async Serial","data",138.944243,9.50000001e-06,0x00,,,
"Async Serial","data",138.944254,9.50000001e-06,0x00,,,
"Async Serial","data",138.944264,9.50000001e-06,0x01,,,
"Async Serial","data",138.944274,9.49999999e-06,0x00,,,
"Async Serial","data",138.944284,9.49999999e-06,0x00,,,
"Async Serial","data",138.944294,9.50000001e-06,0x01,,,
"Async Serial","data",138.944304,9.49999999e-06,0xCC,,,
"Async Serial","data",138.944314,9.50000001e-06,0xB3,,,
"Async Serial [1]","data",138.944393,9.49999996e-06,0xB1,,,
"Async Serial [1]","data",138.944403,9.49999999e-06,0x02,,,
"Async Serial [1]","data",138.944413,9.49999996e-06,0x40,,,
"Async Serial [1]","data",138.944423,9.50000001e-06,0x01,,,
"Async Serial [1]","data",138.944433,9.50000001e-06,0x89,,,
"Async Serial [1]","data",138.944443,9.50000001e-06,0x34,,,
"Async Serial [1]","data",138.944453,9.49999999e-06,0xB3,,,
"Async Serial","data",138.944505,9.50000001e-06,0xB2,,,
"Async Serial","data",138.944515,9.50000001e-06,0x00,,,
"Async Serial","data",138.944525,9.50000001e-06,0x00,,,
"Async Serial","data",138.944535,9.49999999e-06,0x00,,,
"Async Serial","data",138.944546,9.50000001e-06,0xB3,,,
"Async Serial [1]","data",138.944595,9.50000001e-06,0xB1,,,
"Async Serial [1]","data",138.944605,9.49999999e-06,0x02,,,
"Async Serial [1]","data",138.944615,9.49999999e-06,0x41,,,
"Async Serial [1]","data",138.944625,9.49999999e-06,0x01,,,
"Async Serial [1]","data",138.944635,9.49999999e-06,0x8C,,,
"Async Serial [1]","data",138.944645,9.50000001e-06,0x30,,,
"Async Serial [1]","data",138.944655,9.50000001e-06,0xB3,,,
"Async Serial","data",138.944706,9.50000001e-06,0xB2,,,
"Async Serial","data",138.944716,9.50000001e-06,0x00,,,
"Async Serial","data",138.944726,9.50000001e-06,0x00,,,
"Async Serial","data",138.944737,9.50000001e-06,0x00,,,
