name,type,start_time,duration,"data","error","ack","address","read"
"Async Serial [1]","data",1.82989088,9.5e-06,0xB1,,,,
"Async Serial [1]","data",1.82990088,9.5e-06,0x04,,,,
"Async Serial [1]","data",1.82991087,9.5e-06,0x00,,,,
"Async Serial [1]","data",1.82992088,9.5e-06,0x00,,,,
"Async Serial [1]","data",1.82993088,9.5e-06,0xFC,,,,
"Async Serial [1]","data",1.82994087,9.5e-06,0xB3,,,,
"Async Serial","data",1.82998212,9.5e-06,0xB2,,,,
"Async Serial","data",1.82999225,9.5e-06,0x00,,,,
"Async Serial","data",1.83000238,9.5e-06,0x01,,,,
"Async Serial","data",1.8300125,9.5e-06,0x03,,,,
"Async Serial","data",1.83002263,9.5e-06,0xFC,,,,
"Async Serial","data",1.83003275,9.5e-06,0xB3,,,,
"Async Serial [1]","data",1.83009294,9.5e-06,0xB1,,,,
"Async Serial [1]","data",1.83010294,9.5e-06,0x01,,,,
"Async Serial [1]","data",1.83011294,9.5e-06,0x00,,,,
"Async Serial [1]","data",1.83012294,9.5e-06,0x60,,,,
"Async Serial [1]","data",1.83013294,9.5e-06,0x9F,,,,
"Async Serial [1]","data",1.83014294,9.5e-06,0xB3,,,,
"Async Serial","data",1.83046419,9.5e-06,0xB2,,,,
"Async Serial","data",1.83047431,9.5e-06,0x00,,,,
"Async Serial","data",1.83048444,9.5e-06,0x60,,,,
"Async Serial","data",1.83049456,9.5e-06,0xA5,,,,
"Async Serial","data",1.83050469,9.5e-06,0x03,,,,
"Async Serial","data",1.83051481,9.5e-06,0x00,,,,
"Async Serial","data",1.83052494,9.5e-06,0x00,,,,
"Async Serial","data",1.83053506,9.5e-06,0x28,,,,
"Async Serial","data",1.83054519,9.5e-06,0xEF,,,,
"Async Serial","data",1.83055531,9.5e-06,0x5B,,,,
"Async Serial","data",1.83056544,9.5e-06,0x00,,,,
"Async Serial","data",1.83057556,9.5e-06,0x03,,,,
"Async Serial","data",1.83058569,9.5e-06,0x00,,,,
"Async Serial","data",1.83059581,9.5e-06,0x00,,,,
"Async Serial","data",1.83060594,9.5e-06,0x00,,,,
"Async Serial","data",1.83061606,9.5e-06,0x40,,,,
"Async Serial","data",1.83062619,9.5e-06,0x0D,,,,
"Async Serial","data",1.83063631,9.5e-06,0x03,,,,
"Async Serial","data",1.83064644,9.5e-06,0x00,,,,
"Async Serial","data",1.83065656,9.5e-06,0x0A,,,,
"Async Serial","data",1.83066669,9.5e-06,0x00,,,,
"Async Serial","data",1.83067681,9.5e-06,0x01,,,,
"Async Serial","data",1.83068694,9.5e-06,0x00,,,,
"Async Serial","data",1.83069706,9.5e-06,0x80,,,,
"Async Serial","data",1.83070719,9.5e-06,0x8D,,,,
"Async Serial","data",1.83071731,9.5e-06,0x5B,,,,
"Async Serial","data",1.83072744,9.5e-06,0x00,,,,
"Async Serial","data",1.83073756,9.5e-06,0x20,,,,
"Async Serial","data",1.83074769,9.5e-06,0xBF,,,,
"Async Serial","data",1.83075781,9.5e-06,0x02,,,,
"Async Serial","data",1.83076794,9.5e-06,0x00,,,,
"Async Serial","data",1.83077806,9.5e-06,0x00,,,,
"Async Serial","data",1.83078819,9.5e-06,0x12,,,,
"Async Serial","data",1.83079831,9.5e-06,0x7A,,,,
"Async Serial","data",1.83080844,9.5e-06,0x00,,,,
"Async Serial","data",1.83081863,9.5e-06,0x60,,,,
"Async Serial","data",1.83082875,9.5e-06,0xE3,,,,
"Async Serial","data",1.83083887,9.5e-06,0x16,,,,
"Async Serial","data",1.830849,9.5e-06,0x00,,,,
"Async Serial","data",1.83085912,9.5e-06,0x30,,,,
"Async Serial","data",1.83086925,9.5e-06,0x11,,,,
"Async Serial","data",1.83087938,9.5e-06,0x00,,,,
"Async Serial","data",1.8308895,9.5e-06,0x00,,,,
"Async Serial","data",1.83089963,9.5e-06,0xD0,,,,
"Async Serial","data",1.83090975,9.5e-06,0xEE,,,,
"Async Serial","data",1.83091987,9.5e-06,0xFF,,,,
"Async Serial","data",1.83093,9.5e-06,0xFF,,,,
"Async Serial","data",1.83094012,9.5e-06,0x20,,,,
"Async Serial","data",1.83095025,9.5e-06,0x03,,,,
"Async Serial","data",1.83096038,9.5e-06,0xD0,,,,
"Async Serial","data",1.8309705,9.5e-06,0x07,,,,
"Async Serial","data",1.83098063,9.5e-06,0x64,,,,
"Async Serial","data",1.83099075,9.5e-06,0x00,,,,
"Async Serial","data",1.83100087,9.5e-06,0xF4,,,,
"Async Serial","data",1.831011,9.5e-06,0x01,,,,
"Async Serial","data",1.83102112,9.5e-06,0x00,,,,
"Async Serial","data",1.83103125,9.5e-06,0x00,,,,
"Async Serial","data",1.83104138,9.5e-06,0x00,,,,
"Async Serial","data",1.8310515,9.5e-06,0x00,,,,
"Async Serial","data",1.83106163,9.5e-06,0x00,,,,
"Async Serial","data",1.83107175,9.5e-06,0x00,,,,
"Async Serial","data",1.83108188,9.5e-06,0x00,,,,
"Async Serial","data",1.831092,9.5e-06,0x00,,,,
"Async Serial","data",1.83110212,9.5e-06,0x00,,,,
"Async Serial","data",1.83111225,9.5e-06,0x00,,,,
"Async Serial","data",1.83112238,9.5e-06,0x00,,,,
"Async Serial","data",1.8311325,9.5e-06,0x00,,,,
"Async Serial","data",1.83114263,9.5e-06,0x00,,,,
"Async Serial","data",1.83115275,9.5e-06,0x00,,,,
"Async Serial","data",1.83116287,9.5e-06,0x00,,,,
"Async Serial","data",1.831173,9.5e-06,0x00,,,,
"Async Serial","data",1.83118312,9.5e-06,0x00,,,,
"Async Serial","data",1.83119325,9.5e-06,0x00,,,,
"Async Serial","data",1.83120338,9.5e-06,0x00,,,,
"Async Serial","data",1.8312135,9.5e-06,0x00,,,,
"Async Serial","data",1.83122363,9.5e-06,0x00,,,,
"Async Serial","data",1.83123375,9.5e-06,0x00,,,,
"Async Serial","data",1.83124387,9.5e-06,0x00,,,,
"Async Serial","data",1.831254,9.5e-06,0x00,,,,
"Async Serial","data",1.83126412,9.5e-06,0x00,,,,
"Async Serial","data",1.83127425,9.5e-06,0x00,,,,
"Async Serial","data",1.83128438,9.5e-06,0x00,,,,
"Async Serial","data",1.8312945,9.5e-06,0x00,,,,
"Async Serial","data",1.83130463,9.5e-06,0x00,,,,
"Async Serial","data",1.83131475,9.5e-06,0x00,,,,
"Async Serial","data",1.83132487,9.5e-06,0x00,,,,
"Async Serial","data",1.831335,9.5e-06,0x00,,,,
"Async Serial","data",1.83134512,9.5e-06,0x00,,,,
"Async Serial","data",1.83135525,9.5e-06,0x00,,,,
"Async Serial","data",1.83136538,9.5e-06,0x00,,,,
"Async Serial","data",1.8313755,9.5e-06,0x00,,,,
"Async Serial","data",1.83138563,9.5e-06,0x00,,,,
"Async Serial","data",1.83139575,9.5e-06,0x00,,,,
"Async Serial","data",1.83140587,9.5e-06,0x00,,,,
"Async Serial","data",1.831416,9.5e-06,0x00,,,,
"Async Serial","data",1.83142612,9.5e-06,0x00,,,,
"Async Serial","data",1.83143625,9.5e-06,0x00,,,,
"Async Serial","data",1.83144638,9.5e-06,0x00,,,,
"Async Serial","data",1.8314565,9.5e-06,0x00,,,,
"Async Serial","data",1.83146663,9.5e-06,0xAA,,,,
"Async Serial","data",1.83147675,9.5e-06,0xB3,,,,
"Async Serial [1]","data",1.83159619,9.5e-06,0xB1,,,,
"Async Serial [1]","data",1.83160619,9.5e-06,0x02,,,,
"Async Serial [1]","data",1.83161619,9.5e-06,0x03,,,,
"Async Serial [1]","data",1.83162619,9.5e-06,0x01,,,,
"Async Serial [1]","data",1.83163619,9.5e-06,0x00,,,,
"Async Serial [1]","data",1.83164619,9.5e-06,0xFA,,,,
"Async Serial [1]","data",1.83165619,9.5e-06,0xB3,,,,
"Async Serial","data",1.83170256,9.5e-06,0xB2,,,,
"Async Serial","data",1.83171269,9.5e-06,0x00,,,,
"Async Serial","data",1.83172281,9.5e-06,0x00,,,,
"Async Serial","data",1.83173294,9.5e-06,0x00,,,,
"Async Serial","data",1.83174306,9.5e-06,0xB3,,,,
"Async Serial [1]","data",1.83179819,9.5e-06,0xB1,,,,
"Async Serial [1]","data",1.83180819,9.5e-06,0x02,,,,
"Async Serial [1]","data",1.83181819,9.5e-06,0x47,,,,
"Async Serial [1]","data",1.83182819,9.5e-06,0x01,,,,
"Async Serial [1]","data",1.83183819,9.5e-06,0x01,,,,
"Async Serial [1]","data",1.83184819,9.5e-06,0xB5,,,,
"Async Serial [1]","data",1.83185819,9.5e-06,0xB3,,,,
"Async Serial","data",1.83190806,9.5e-06,0xB2,,,,
"Async Serial","data",1.83191819,9.5e-06,0x00,,,,
"Async Serial","data",1.83192831,9.5e-06,0x00,,,,
"Async Serial","data",1.83193844,9.5e-06,0x00,,,,
"Async Serial","data",1.83194856,9.5e-06,0xB3,,,,
"I2C","start",3.19948019,6.25000002e-08,,,,,
"I2C","address",3.19948281,2.325e-05,,,true,0x25,false
"I2C","stop",3.1995105,6.24999998e-08,,,,,
"I2C","start",3.19951531,6.24999998e-08,,,,,
"I2C","address",3.19951788,2.325e-05,,,true,0x25,false
"I2C","data",3.19954413,2.3125e-05,0x00,,true,,
"I2C","start",3.19957263,6.24999998e-08,,,,,
"I2C","address",3.19957525,2.325e-05,,,true,0x25,true
"I2C","data",3.19960437,2.31875e-05,0xA5,,true,,
"I2C","data",3.19962906,2.325e-05,0x03,,false,,
"I2C","stop",3.19965525,6.24999998e-08,,,,,
"I2C","start",3.19966081,6.25000002e-08,,,,,
"I2C","address",3.19966344,2.325e-05,,,true,0x25,false
"I2C","data",3.19968975,2.3125e-05,0x40,,true,,
"I2C","start",3.19971812,6.24999998e-08,,,,,
"I2C","address",3.19972075,2.325e-05,,,true,0x25,true
"I2C","data",3.19974981,2.3125e-05,0x00,,false,,
"I2C","stop",3.19977594,6.24999998e-08,,,,,
"I2C","start",3.19978106,6.24999998e-08,,,,,
"I2C","address",3.19978369,2.325e-05,,,true,0x25,false
"I2C","data",3.19980988,2.31875e-05,0x00,,true,,
"I2C","start",3.19983844,6.24999998e-08,,,,,
"I2C","address",3.199841,2.325e-05,,,true,0x25,true
"I2C","data",3.19987006,2.31875e-05,0xA5,,true,,
"I2C","data",3.19989475,2.325e-05,0x03,,true,,
"I2C","data",3.19991944,2.33125e-05,0x00,,true,,
"I2C","data",3.19994419,2.325e-05,0x00,,true,,
"I2C","data",3.19996894,2.325e-05,0x28,,true,,
"I2C","data",3.19999369,2.325e-05,0xEF,,true,,
"I2C","data",3.20001837,2.325e-05,0x5B,,true,,
"I2C","data",3.20004313,2.325e-05,0x00,,true,,
"I2C","data",3.20006787,2.325e-05,0x03,,true,,
"I2C","data",3.20009256,2.33125e-05,0x00,,true,,
"I2C","data",3.20011731,2.325e-05,0x00,,true,,
"I2C","data",3.20014206,2.325e-05,0x00,,true,,
"I2C","data",3.20016681,2.325e-05,0x40,,true,,
"I2C","data",3.2001915,2.325e-05,0x0D,,true,,
"I2C","data",3.20021625,2.325e-05,0x03,,true,,
"I2C","data",3.200241,2.325e-05,0x00,,true,,
"I2C","data",3.20026575,2.325e-05,0x0A,,true,,
"I2C","data",3.20029044,2.325e-05,0x00,,true,,
"I2C","data",3.20031519,2.325e-05,0x01,,true,,
"I2C","data",3.20033994,2.325e-05,0x00,,true,,
"I2C","data",3.20036463,2.325e-05,0x80,,true,,
"I2C","data",3.20038937,2.325e-05,0x8D,,true,,
"I2C","data",3.20041412,2.325e-05,0x5B,,true,,
"I2C","data",3.20043888,2.325e-05,0x00,,true,,
"I2C","data",3.20046356,2.33125e-05,0x20,,true,,
"I2C","data",3.20048831,2.325e-05,0xBF,,true,,
"I2C","data",3.20051306,2.325e-05,0x02,,true,,
"I2C","data",3.20053781,2.325e-05,0x00,,true,,
"I2C","data",3.2005625,2.325e-05,0x00,,true,,
"I2C","data",3.20058725,2.325e-05,0x12,,true,,
"I2C","data",3.200612,2.325e-05,0x7A,,true,,
"I2C","data",3.20063675,2.325e-05,0x00,,true,,
"I2C","data",3.20066144,2.325e-05,0x60,,true,,
"I2C","data",3.20068619,2.325e-05,0xE3,,true,,
"I2C","data",3.20071094,2.325e-05,0x16,,true,,
"I2C","data",3.20073569,2.325e-05,0x00,,true,,
"I2C","data",3.20076038,2.325e-05,0x30,,true,,
"I2C","data",3.20078512,2.325e-05,0x11,,true,,
"I2C","data",3.20080988,2.325e-05,0x00,,true,,
"I2C","data",3.20083463,2.325e-05,0x00,,true,,
"I2C","data",3.20085931,2.325e-05,0xD0,,true,,
"I2C","data",3.20088406,2.325e-05,0xEE,,true,,
"I2C","data",3.20090881,2.325e-05,0xFF,,true,,
"I2C","data",3.2009335,2.325e-05,0xFF,,true,,
"I2C","data",3.20095825,2.325e-05,0x20,,true,,
"I2C","data",3.200983,2.325e-05,0x03,,true,,
"I2C","data",3.20100775,2.325e-05,0xD0,,true,,
"I2C","data",3.20103244,2.325e-05,0x07,,true,,
"I2C","data",3.20105719,2.325e-05,0x64,,true,,
"I2C","data",3.20108194,2.325e-05,0x00,,true,,
"I2C","data",3.20110662,2.33125e-05,0xF4,,true,,
"I2C","data",3.20113138,2.325e-05,0x01,,true,,
"I2C","data",3.20115612,2.325e-05,0x00,,true,,
"I2C","data",3.20118087,2.325e-05,0x00,,true,,
"I2C","data",3.20120563,2.325e-05,0x00,,true,,
"I2C","data",3.20123031,2.325e-05,0x00,,true,,
"I2C","data",3.20125506,2.325e-05,0x00,,true,,
"I2C","data",3.20127981,2.325e-05,0x00,,true,,
"I2C","data",3.2013045,2.33125e-05,0x00,,true,,
"I2C","data",3.20132925,2.325e-05,0x00,,true,,
"I2C","data",3.201354,2.325e-05,0x00,,true,,
"I2C","data",3.20137875,2.325e-05,0x00,,true,,
"I2C","data",3.20140344,2.33125e-05,0x00,,true,,
"I2C","data",3.20142819,2.325e-05,0x00,,true,,
"I2C","data",3.20145294,2.325e-05,0x00,,true,,
"I2C","data",3.20147769,2.325e-05,0x00,,true,,
"I2C","data",3.20150238,2.325e-05,0x00,,true,,
"I2C","data",3.20152713,2.325e-05,0x00,,true,,
"I2C","data",3.20155187,2.325e-05,0x00,,true,,
"I2C","data",3.20157662,2.325e-05,0x00,,true,,
"I2C","data",3.20160131,2.325e-05,0x00,,true,,
"I2C","data",3.20162606,2.325e-05,0x01,,true,,
"I2C","data",3.20165081,2.325e-05,0x00,,true,,
"I2C","data",3.20167556,2.325e-05,0x00,,true,,
"I2C","data",3.20170025,2.325e-05,0x00,,true,,
"I2C","data",3.201725,2.325e-05,0x00,,true,,
"I2C","data",3.20174975,2.325e-05,0x00,,true,,
"I2C","data",3.20177444,2.33125e-05,0x00,,true,,
"I2C","data",3.20179919,2.325e-05,0x00,,true,,
"I2C","data",3.20182394,2.325e-05,0x00,,true,,
"I2C","data",3.20184869,2.325e-05,0x00,,true,,
"I2C","data",3.20187337,2.325e-05,0x00,,true,,
"I2C","data",3.20189813,2.325e-05,0x00,,true,,
"I2C","data",3.20192288,2.325e-05,0x00,,true,,
"I2C","data",3.20194762,2.325e-05,0x00,,true,,
"I2C","data",3.20197231,2.325e-05,0x00,,true,,
"I2C","data",3.20199706,2.325e-05,0x00,,true,,
"I2C","data",3.20202181,2.325e-05,0x00,,true,,
"I2C","data",3.2020465,2.325e-05,0x00,,true,,
"I2C","data",3.20207125,2.325e-05,0x00,,true,,
"I2C","data",3.202096,2.325e-05,0x00,,true,,
"I2C","data",3.20212069,2.33125e-05,0x00,,true,,
"I2C","data",3.20214544,2.325e-05,0x00,,true,,
"I2C","data",3.20217019,2.325e-05,0x00,,true,,
"I2C","data",3.20219494,2.325e-05,0x00,,true,,
"I2C","data",3.20221963,2.325e-05,0x00,,false,,
"I2C","stop",3.20224588,6.24999998e-08,,,,,
"I2C","start",3.202251,6.25000002e-08,,,,,
"I2C","address",3.20225362,2.325e-05,,,true,0x25,false
"I2C","data",3.20227994,2.31875e-05,0x40,,true,,
"I2C","start",3.20230837,6.25000002e-08,,,,,
"I2C","address",3.202311,2.325e-05,,,true,0x25,true
"I2C","data",3.20234,2.31875e-05,0x00,,false,,
"I2C","stop",3.20236619,6.25000002e-08,,,,,
"I2C","start",3.49927637,6.24999998e-08,,,,,
"I2C","address",3.499279,2.325e-05,,,true,0x25,false
"I2C","stop",3.49930669,6.25000002e-08,,,,,
"I2C","start",3.4993115,6.24999998e-08,,,,,
"I2C","address",3.49931406,2.33125e-05,,,true,0x25,false
"I2C","data",3.49934025,2.31875e-05,0x00,,true,,
"I2C","start",3.49936881,6.24999998e-08,,,,,
"I2C","address",3.49937144,2.325e-05,,,true,0x25,true
"I2C","data",3.49940044,2.325e-05,0xA5,,true,,
"I2C","data",3.49942513,2.325e-05,0x03,,false,,
"I2C","stop",3.49945138,6.24999998e-08,,,,,
"I2C","start",3.499457,6.24999998e-08,,,,,
"I2C","address",3.49945963,2.325e-05,,,true,0x25,false
"I2C","data",3.49948581,2.31875e-05,0x40,,true,,
"I2C","start",3.49951437,6.25000002e-08,,,,,
"I2C","address",3.499517,2.325e-05,,,true,0x25,true
"I2C","data",3.499546,2.31875e-05,0x00,,false,,
"I2C","stop",3.49957219,6.25000002e-08,,,,,
"I2C","start",3.49957719,6.25000002e-08,,,,,
"I2C","address",3.49957981,2.325e-05,,,true,0x25,false
"I2C","data",3.499606,2.31875e-05,0x00,,true,,
"I2C","start",3.49963456,6.25000002e-08,,,,,
"I2C","address",3.49963713,2.325e-05,,,true,0x25,true
"I2C","data",3.49966619,2.31875e-05,0xA5,,true,,
"I2C","data",3.49969088,2.325e-05,0x03,,true,,
"I2C","data",3.49971556,2.33125e-05,0x00,,true,,
"I2C","data",3.49974031,2.325e-05,0x00,,true,,
"I2C","data",3.49976506,2.325e-05,0x28,,true,,
"I2C","data",3.49978981,2.325e-05,0xEF,,true,,
"I2C","data",3.4998145,2.325e-05,0x5B,,true,,
"I2C","data",3.49983925,2.325e-05,0x00,,true,,
"I2C","data",3.499864,2.325e-05,0x03,,true,,
"I2C","data",3.49988875,2.325e-05,0x00,,true,,
"I2C","data",3.49991344,2.325e-05,0x00,,true,,
"I2C","data",3.49993819,2.325e-05,0x00,,true,,
"I2C","data",3.49996294,2.325e-05,0x40,,true,,
"I2C","data",3.49998769,2.325e-05,0x0D,,true,,
"I2C","data",3.50001237,2.325e-05,0x03,,true,,
"I2C","data",3.50003712,2.325e-05,0x00,,true,,
"I2C","data",3.50006188,2.325e-05,0x0A,,true,,
"I2C","data",3.50008662,2.325e-05,0x00,,true,,
"I2C","data",3.50011131,2.325e-05,0x01,,true,,
"I2C","data",3.50013606,2.325e-05,0x00,,true,,
"I2C","data",3.50016081,2.325e-05,0x80,,true,,
"I2C","data",3.50018556,2.325e-05,0x8D,,true,,
"I2C","data",3.50021025,2.33125e-05,0x5B,,true,,
"I2C","data",3.500235,2.325e-05,0x00,,true,,
"I2C","data",3.50025975,2.325e-05,0x20,,true,,
"I2C","data",3.5002845,2.325e-05,0xBF,,true,,
"I2C","data",3.50030919,2.33125e-05,0x02,,true,,
"I2C","data",3.50033394,2.325e-05,0x00,,true,,
"I2C","data",3.50035869,2.325e-05,0x00,,true,,
"I2C","data",3.50038344,2.325e-05,0x12,,true,,
"I2C","data",3.50040812,2.33125e-05,0x7A,,true,,
"I2C","data",3.50043287,2.325e-05,0x00,,true,,
"I2C","data",3.50045763,2.325e-05,0x60,,true,,
"I2C","data",3.50048237,2.325e-05,0xE3,,true,,
"I2C","data",3.50050712,2.325e-05,0x16,,true,,
"I2C","data",3.50053181,2.325e-05,0x00,,true,,
"I2C","data",3.50055656,2.325e-05,0x30,,true,,
"I2C","data",3.50058131,2.325e-05,0x11,,true,,
"I2C","data",3.500606,2.33125e-05,0x00,,true,,
"I2C","data",3.50063075,2.325e-05,0x00,,true,,
"I2C","data",3.5006555,2.325e-05,0xD0,,true,,
"I2C","data",3.50068025,2.325e-05,0xEE,,true,,
"I2C","data",3.50070494,2.33125e-05,0xFF,,true,,
"I2C","data",3.50072969,2.325e-05,0xFF,,true,,
"I2C","data",3.50075444,2.325e-05,0x20,,true,,
"I2C","data",3.50077919,2.325e-05,0x03,,true,,
"I2C","data",3.50080387,2.33125e-05,0xD0,,true,,
"I2C","data",3.50082863,2.325e-05,0x07,,true,,
"I2C","data",3.50085338,2.325e-05,0x64,,true,,
"I2C","data",3.50087812,2.325e-05,0x00,,true,,
"I2C","data",3.50090281,2.325e-05,0xF4,,true,,
"I2C","data",3.50092756,2.325e-05,0x01,,true,,
"I2C","data",3.50095231,2.325e-05,0x00,,true,,
"I2C","data",3.50097706,2.325e-05,0x00,,true,,
"I2C","data",3.50100175,2.325e-05,0x00,,true,,
"I2C","data",3.5010265,2.325e-05,0x00,,true,,
"I2C","data",3.50105125,2.325e-05,0x00,,true,,
"I2C","data",3.501076,2.325e-05,0x00,,true,,
"I2C","data",3.50110069,2.325e-05,0x00,,true,,
"I2C","data",3.50112544,2.325e-05,0x00,,true,,
"I2C","data",3.50115019,2.325e-05,0x00,,true,,
"I2C","data",3.50117494,2.325e-05,0x00,,true,,
"I2C","data",3.50119962,2.325e-05,0x00,,true,,
"I2C","data",3.50122438,2.325e-05,0x00,,true,,
"I2C","data",3.50124913,2.325e-05,0x00,,true,,
"I2C","data",3.50127387,2.325e-05,0x00,,true,,
"I2C","data",3.50129856,2.325e-05,0x00,,true,,
"I2C","data",3.50132331,2.325e-05,0x00,,true,,
"I2C","data",3.50134806,2.325e-05,0x00,,true,,
"I2C","data",3.50137281,2.325e-05,0x00,,true,,
"I2C","data",3.5013975,2.325e-05,0x00,,true,,
"I2C","data",3.50142225,2.325e-05,0x01,,true,,
"I2C","data",3.501447,2.325e-05,0x00,,true,,
"I2C","data",3.50147175,2.325e-05,0x00,,true,,
"I2C","data",3.50149644,2.325e-05,0x00,,true,,
"I2C","data",3.50152119,2.325e-05,0x00,,true,,
"I2C","data",3.50154594,2.325e-05,0x00,,true,,
"I2C","data",3.50157069,2.325e-05,0x00,,true,,
"I2C","data",3.50159537,2.325e-05,0x00,,true,,
"I2C","data",3.50162013,2.325e-05,0x00,,true,,
"I2C","data",3.50164488,2.325e-05,0x00,,true,,
"I2C","data",3.50166962,2.325e-05,0x00,,true,,
"I2C","data",3.50169431,2.33125e-05,0x00,,true,,
"I2C","data",3.50171906,2.325e-05,0x00,,true,,
"I2C","data",3.50174381,2.325e-05,0x00,,true,,
"I2C","data",3.50176856,2.325e-05,0x00,,true,,
"I2C","data",3.50179331,2.325e-05,0x00,,true,,
"I2C","data",3.501818,2.325e-05,0x00,,true,,
"I2C","data",3.50184275,2.325e-05,0x00,,true,,
"I2C","data",3.5018675,2.325e-05,0x00,,true,,
"I2C","data",3.50189225,2.325e-05,0x00,,true,,
"I2C","data",3.501917,2.325e-05,0x00,,true,,
"I2C","data",3.50194169,2.325e-05,0x00,,true,,
"I2C","data",3.50196644,2.325e-05,0x00,,true,,
"I2C","data",3.50199119,2.325e-05,0x00,,true,,
"I2C","data",3.50201594,2.325e-05,0x00,,false,,
"I2C","stop",3.50204213,6.24999998e-08,,,,,
"I2C","start",3.50204694,6.25000002e-08,,,,,
"I2C","address",3.5020495,2.325e-05,,,true,0x25,false
"I2C","data",3.50207575,2.3125e-05,0x40,,true,,
"I2C","start",3.50210438,6.24999998e-08,,,,,
"I2C","address",3.502107,2.325e-05,,,true,0x25,true
"I2C","data",3.50213606,2.31875e-05,0x00,,false,,
"I2C","stop",3.50216219,6.24999998e-08,,,,,
"I2C","start",3.80007944,6.24999998e-08,,,,,
"I2C","address",3.80008206,2.325e-05,,,true,0x25,false
"I2C","stop",3.80010975,6.25000007e-08,,,,,
"I2C","start",3.80011469,6.25000002e-08,,,,,
"I2C","address",3.80011725,2.33125e-05,,,true,0x25,false
"I2C","data",3.80014363,2.3125e-05,0x00,,true,,
"I2C","start",3.800172,6.25000002e-08,,,,,
"I2C","address",3.80017462,2.325e-05,,,true,0x25,true
"I2C","data",3.80020375,2.325e-05,0xA5,,true,,
"I2C","data",3.8002285,2.325e-05,0x03,,false,,
"I2C","stop",3.80025469,6.25000002e-08,,,,,
"I2C","start",3.80026012,6.25000002e-08,,,,,
"I2C","address",3.80026269,2.33125e-05,,,true,0x25,false
"I2C","data",3.80028894,2.3125e-05,0x40,,true,,
"I2C","start",3.80031744,6.24999998e-08,,,,,
"I2C","address",3.80032006,2.325e-05,,,true,0x25,true
"I2C","data",3.80034912,2.31875e-05,0x00,,false,,
"I2C","stop",3.80037525,6.24999998e-08,,,,,
"I2C","start",3.80038044,6.25000002e-08,,,,,
"I2C","address",3.800383,2.325e-05,,,true,0x25,false
"I2C","data",3.80040925,2.3125e-05,0x00,,true,,
"I2C","start",3.80043775,6.24999998e-08,,,,,
"I2C","address",3.80044037,2.325e-05,,,true,0x25,true
"I2C","data",3.8004695,2.325e-05,0xA5,,true,,
"I2C","data",3.80049419,2.33125e-05,0x03,,true,,
"I2C","data",3.80051894,2.325e-05,0x00,,true,,
"I2C","data",3.80054369,2.325e-05,0x00,,true,,
"I2C","data",3.80056844,2.325e-05,0x28,,true,,
"I2C","data",3.80059312,2.33125e-05,0xEF,,true,,
"I2C","data",3.80061787,2.325e-05,0x5B,,true,,
"I2C","data",3.80064263,2.325e-05,0x00,,true,,
"I2C","data",3.80066738,2.325e-05,0x03,,true,,
"I2C","data",3.80069212,2.325e-05,0x00,,true,,
"I2C","data",3.80071681,2.325e-05,0x00,,true,,
"I2C","data",3.80074156,2.325e-05,0x00,,true,,
"I2C","data",3.80076631,2.325e-05,0x40,,true,,
"I2C","data",3.80079106,2.325e-05,0x0D,,true,,
"I2C","data",3.80081575,2.325e-05,0x03,,true,,
"I2C","data",3.8008405,2.325e-05,0x00,,true,,
"I2C","data",3.80086525,2.325e-05,0x0A,,true,,
"I2C","data",3.80089,2.325e-05,0x00,,true,,
"I2C","data",3.80091469,2.33125e-05,0x01,,true,,
"I2C","data",3.80093944,2.325e-05,0x00,,true,,
"I2C","data",3.80096419,2.325e-05,0x80,,true,,
"I2C","data",3.80098894,2.325e-05,0x8D,,true,,
"I2C","data",3.80101362,2.33125e-05,0x5B,,true,,
"I2C","data",3.80103838,2.325e-05,0x00,,true,,
"I2C","data",3.80106313,2.325e-05,0x20,,true,,
"I2C","data",3.80108787,2.325e-05,0xBF,,true,,
"I2C","data",3.80111263,2.325e-05,0x02,,true,,
"I2C","data",3.80113731,2.325e-05,0x00,,true,,
"I2C","data",3.80116206,2.325e-05,0x00,,true,,
"I2C","data",3.80118681,2.325e-05,0x12,,true,,
"I2C","data",3.8012115,2.325e-05,0x7A,,true,,
"I2C","data",3.80123625,2.325e-05,0x00,,true,,
"I2C","data",3.801261,2.325e-05,0x60,,true,,
"I2C","data",3.80128575,2.325e-05,0xE3,,true,,
"I2C","data",3.80131044,2.325e-05,0x16,,true,,
"I2C","data",3.80133519,2.325e-05,0x00,,true,,
"I2C","data",3.80135994,2.325e-05,0x30,,true,,
"I2C","data",3.80138469,2.325e-05,0x11,,true,,
"I2C","data",3.80140937,2.325e-05,0x00,,true,,
"I2C","data",3.80143413,2.325e-05,0x00,,true,,
"I2C","data",3.80145887,2.325e-05,0xD0,,true,,
"I2C","data",3.80148362,2.325e-05,0xEE,,true,,
"I2C","data",3.80150831,2.33125e-05,0xFF,,true,,
"I2C","data",3.80153306,2.325e-05,0xFF,,true,,
"I2C","data",3.80155781,2.325e-05,0x20,,true,,
"I2C","data",3.80158256,2.325e-05,0x03,,true,,
"I2C","data",3.80160731,2.325e-05,0xD0,,true,,
"I2C","data",3.80163206,2.325e-05,0x07,,true,,
"I2C","data",3.80165675,2.325e-05,0x64,,true,,
"I2C","data",3.8016815,2.325e-05,0x00,,true,,
"I2C","data",3.80170625,2.325e-05,0xF4,,true,,
"I2C","data",3.801731,2.325e-05,0x01,,true,,
"I2C","data",3.80175569,2.325e-05,0x00,,true,,
"I2C","data",3.80178044,2.325e-05,0x00,,true,,
"I2C","data",3.80180519,2.325e-05,0x00,,true,,
"I2C","data",3.80182994,2.325e-05,0x00,,true,,
"I2C","data",3.80185469,2.325e-05,0x00,,true,,
"I2C","data",3.80187937,2.325e-05,0x00,,true,,
"I2C","data",3.80190413,2.325e-05,0x00,,true,,
"I2C","data",3.80192888,2.325e-05,0x00,,true,,
"I2C","data",3.80195362,2.325e-05,0x00,,true,,
"I2C","data",3.80197831,2.325e-05,0x00,,true,,
"I2C","data",3.80200306,2.325e-05,0x00,,true,,
"I2C","data",3.80202781,2.325e-05,0x00,,true,,
"I2C","data",3.80205256,2.325e-05,0x00,,true,,
"I2C","data",3.80207725,2.325e-05,0x00,,true,,
"I2C","data",3.802102,2.325e-05,0x00,,true,,
"I2C","data",3.80212675,2.325e-05,0x00,,true,,
"I2C","data",3.8021515,2.325e-05,0x00,,true,,
"I2C","data",3.80217625,2.325e-05,0x00,,true,,
"I2C","data",3.80220094,2.325e-05,0x00,,true,,
"I2C","data",3.80222569,2.325e-05,0x01,,true,,
"I2C","data",3.80225044,2.325e-05,0x00,,true,,
"I2C","data",3.80227519,2.325e-05,0x00,,true,,
"I2C","data",3.80229994,2.325e-05,0x00,,true,,
"I2C","data",3.80232462,2.325e-05,0x00,,true,,
"I2C","data",3.80234937,2.325e-05,0x00,,true,,
"I2C","data",3.80237413,2.325e-05,0x00,,true,,
"I2C","data",3.80239888,2.325e-05,0x00,,true,,
"I2C","data",3.80242356,2.325e-05,0x00,,true,,
"I2C","data",3.80244831,2.325e-05,0x00,,true,,
"I2C","data",3.80247306,2.325e-05,0x00,,true,,
"I2C","data",3.80249781,2.325e-05,0x00,,true,,
"I2C","data",3.80252256,2.325e-05,0x00,,true,,
"I2C","data",3.80254725,2.325e-05,0x00,,true,,
"I2C","data",3.802572,2.325e-05,0x00,,true,,
"I2C","data",3.80259675,2.325e-05,0x00,,true,,
"I2C","data",3.8026215,2.325e-05,0x00,,true,,
"I2C","data",3.80264619,2.33125e-05,0x00,,true,,
"I2C","data",3.80267094,2.325e-05,0x00,,true,,
"I2C","data",3.80269569,2.325e-05,0x00,,true,,
"I2C","data",3.80272044,2.325e-05,0x00,,true,,
"I2C","data",3.80274519,2.325e-05,0x00,,true,,
"I2C","data",3.80276994,2.325e-05,0x00,,true,,
"I2C","data",3.80279463,2.325e-05,0x00,,true,,
"I2C","data",3.80281937,2.325e-05,0x00,,false,,
"I2C","stop",3.80284562,6.25000002e-08,,,,,
"I2C","start",3.80285075,6.24999998e-08,,,,,
"I2C","address",3.80285338,2.325e-05,,,true,0x25,false
"I2C","data",3.80287963,2.325e-05,0x40,,true,,
"I2C","start",3.80290813,6.24999998e-08,,,,,
"I2C","address",3.80291069,2.325e-05,,,true,0x25,true
"I2C","data",3.80293975,2.31875e-05,0x00,,false,,
"I2C","stop",3.80296594,6.25000002e-08,,,,,
